***BUSMASTER Ver 3.2.2***
***PROTOCOL CAN***
***NOTE: PLEASE DO NOT EDIT THIS DOCUMENT***
***[START LOGGING SESSION]***
***START DATE AND TIME 21:4:2024 17:37:9:189***
***HEX***
***SYSTEM MODE***
***START CHANNEL BAUD RATE***
***CHANNEL 1 - Simulation - 500000 bps***
***CHANNEL 2 - Simulation - 500000 bps***
***CHANNEL 3 - Simulation - 500000 bps***
***CHANNEL 4 - Simulation - 500000 bps***
***CHANNEL 5 - Simulation - 500000 bps***
***CHANNEL 6 - Simulation - 500000 bps***
***CHANNEL 7 - Simulation - 500000 bps***
***CHANNEL 8 - Simulation - 500000 bps***
***CHANNEL 9 - Simulation - 500000 bps***
***CHANNEL 10 - Simulation - 500000 bps***
***CHANNEL 11 - Simulation - 500000 bps***
***CHANNEL 12 - Simulation - 500000 bps***
***CHANNEL 13 - Simulation - 500000 bps***
***CHANNEL 14 - Simulation - 500000 bps***
***CHANNEL 15 - Simulation - 500000 bps***
***CHANNEL 16 - Simulation - 500000 bps***
***END CHANNEL BAUD RATE***
***START DATABASE FILES***
***END DATABASE FILES***
***<Time><Tx/Rx><Channel><CAN ID><Type><DLC><DataBytes>***
02:00:55:9045 Rx 1 0x036 s 8 17 6C 00 00 00 00 F2 D0 
02:00:55:9640 Rx 1 0x16D s 8 17 6B 00 00 00 00 F2 D0 
02:00:56:0222 Rx 1 0x0B6 s 8 20 00 03 31 90 00 00 00 
02:00:56:0991 Rx 1 0x036 s 8 17 6A 00 00 00 00 F2 D0 
02:00:56:1635 Rx 1 0x16D s 8 17 68 00 00 00 00 F3 D0 
02:00:56:2328 Rx 1 0x0B6 s 8 20 00 03 31 90 00 00 00 
02:00:56:2938 Rx 1 0x036 s 8 17 69 00 00 00 00 F3 D0 
02:00:56:3815 Rx 1 0x16D s 8 17 6A 00 00 00 00 F3 D0 
02:00:56:4445 Rx 1 0x0B6 s 8 20 00 03 31 90 00 00 00 
02:00:56:5059 Rx 1 0x036 s 8 17 6A 00 00 00 00 F3 D0 
02:00:56:5708 Rx 1 0x16D s 8 09 00 00 00 00 00 00 00 
02:00:56:6245 Rx 1 0x1A1 s 5 00 00 00 00 00 
02:00:56:6737 Rx 1 0x036 s 8 0D 00 00 00 00 00 00 00 
02:00:56:7401 Rx 1 0x210 s 8 00 00 00 0F 21 00 00 A0 
02:00:56:8034 Rx 1 0x16D s 8 17 69 00 00 00 00 F4 D0 
02:00:56:8650 Rx 1 0x210 s 8 17 6A 00 00 00 00 F4 D0 
02:00:56:9307 Rx 1 0x0B6 s 8 20 00 03 31 A0 00 00 00 
02:00:56:9941 Rx 1 0x16D s 8 17 6A 00 00 00 00 F4 D0 
02:00:57:0634 Rx 1 0x036 s 6 10 00 00 00 01 00 
02:00:57:1143 Rx 1 0x210 s 8 17 6A 00 00 00 00 F4 D0 
02:00:57:2119 Rx 1 0x16D s 6 10 00 00 00 01 00 
02:00:57:2761 Rx 1 0x036 s 6 10 00 00 00 01 00 
02:00:57:4161 Rx 1 0x16D s 6 10 00 00 00 01 00 
02:00:57:4732 Rx 1 0x210 s 8 17 6A 00 00 00 00 F5 D0 
02:00:57:5351 Rx 1 0x167 s 8 00 00 00 0F 21 00 00 A0 
02:00:57:5975 Rx 1 0x16D s 8 09 00 00 00 00 00 00 00 
02:00:57:6647 Rx 1 0x036 s 8 0D 00 00 00 00 00 00 00 
02:00:57:7132 Rx 1 0x525 s 8 17 6B 00 00 00 00 F5 D0 
02:00:57:7691 Rx 1 0x16D s 8 17 6B 00 00 00 00 F6 D0 
02:00:57:8321 Rx 1 0x0E6 s 8 17 6C 00 00 00 00 F6 D0 
02:00:57:8930 Rx 1 0x036 s 8 17 6D 00 00 00 00 F6 D0 
02:00:57:9798 Rx 1 0x16D s 8 17 6D 00 00 00 00 F6 D0 
02:00:58:1370 Rx 1 0x036 s 8 17 6C 00 00 00 00 F6 D0 
02:00:58:2024 Rx 1 0x0B6 s 8 20 00 03 31 B0 00 00 00 
02:00:59:4707 Rx 1 0x036 s 8 17 6C 00 00 00 00 F7 D0 
02:00:59:4819 Rx 1 0x8000000 x 0 
02:00:59:4928 Rx 1 0x4000 s 0 
02:00:59:5039 Rx 1 0xA0000021 x 0 
02:00:59:5420 Rx 1 0x0B6 s 8 00 00 00 40 00 00 00 00 
02:00:59:6038 Rx 1 0x0B6 s 8 F2 80 00 00 00 00 FF FF 
02:00:59:6848 Rx 1 0x217 s 8 00 00 00 00 00 19 A1 69 
02:00:59:7440 Rx 1 0x1A8 s 5 80 00 00 00 80 
02:00:59:8068 Rx 1 0x217 s 5 80 00 02 00 00 
02:00:59:8853 Rx 1 0x217 s 8 00 00 00 00 00 19 A1 69 
02:00:59:9532 Rx 1 0x1A8 s 5 80 00 00 00 80 
02:01:00:0141 Rx 1 0x217 s 5 80 00 02 00 00 
02:01:00:0847 Rx 1 0x217 s 8 00 00 00 00 00 19 A1 69 
02:01:00:1289 Rx 1 0x1A8 s 5 80 00 00 00 80 
02:01:00:1861 Rx 1 0x217 s 5 80 00 02 00 00 
02:01:00:2434 Rx 1 0x018 s 8 00 00 00 00 00 00 00 00 
02:01:00:3075 Rx 1 0x217 s 8 00 00 00 00 00 19 A1 69 
02:01:00:3859 Rx 1 0x217 s 5 80 00 02 00 00 
02:01:00:4484 Rx 1 0x018 s 8 00 00 00 00 00 00 00 00 
02:01:00:5062 Rx 1 0x217 s 8 00 00 00 00 00 19 A1 69 
02:01:00:5849 Rx 1 0x217 s 5 80 00 02 00 00 
02:01:00:6382 Rx 1 0x018 s 8 00 00 00 00 00 00 00 00 
02:01:00:7009 Rx 1 0x217 s 8 00 00 00 00 00 19 A1 69 
02:01:00:7873 Rx 1 0x217 s 5 80 00 02 00 00 
02:01:00:8413 Rx 1 0x018 s 8 00 00 00 00 00 00 00 00 
02:01:00:9034 Rx 1 0x217 s 8 00 00 00 00 00 19 A1 69 
02:01:00:9924 Rx 1 0x217 s 5 80 00 02 00 00 
02:01:01:0509 Rx 1 0x018 s 8 00 00 00 00 00 00 00 00 
02:01:01:1057 Rx 1 0x217 s 8 00 00 00 00 00 19 A1 69 
02:01:01:1887 Rx 1 0x217 s 5 80 00 02 00 00 
02:01:01:2431 Rx 1 0x018 s 8 00 00 00 00 00 00 00 00 
02:01:01:2955 Rx 1 0x217 s 8 00 00 00 00 00 19 A1 69 
02:01:01:5147 Rx 1 0x217 s 5 80 00 02 00 00 
02:01:01:5661 Rx 1 0x018 s 8 00 00 00 00 00 00 00 00 
02:01:01:6202 Rx 1 0x217 s 5 80 00 02 00 00 
02:01:01:6845 Rx 1 0x217 s 8 00 00 00 00 00 19 A1 69 
02:01:01:7539 Rx 1 0x1A8 s 5 80 00 00 00 80 
02:01:01:8082 Rx 1 0x217 s 5 80 00 02 00 00 
02:01:01:8854 Rx 1 0x217 s 8 00 00 00 00 00 19 A1 69 
02:01:01:9491 Rx 1 0x1A8 s 5 80 00 00 00 80 
02:01:02:0155 Rx 1 0x217 s 5 80 00 02 00 00 
02:01:02:1193 Rx 1 0x217 s 8 00 00 00 00 00 19 A1 69 
02:01:02:1796 Rx 1 0x1A8 s 5 80 00 00 00 80 
02:01:02:2410 Rx 1 0x217 s 5 80 00 02 00 00 
02:01:02:3035 Rx 1 0x210 s 8 00 00 00 00 00 19 A1 69 
02:01:02:4337 Rx 1 0x210 s 5 80 00 02 00 00 
02:01:02:5136 Rx 1 0x018 s 8 00 00 00 00 00 00 00 00 
02:01:02:5866 Rx 1 0x217 s 5 80 00 02 00 00 
02:01:02:6490 Rx 1 0x018 s 6 10 00 00 00 01 00 
02:01:02:7202 Rx 1 0x217 s 8 00 00 00 00 00 19 A1 69 
02:01:02:9444 Rx 1 0x217 s 5 80 00 02 00 00 
02:01:03:0041 Rx 1 0x217 s 8 00 00 00 00 00 19 A1 69 
02:01:03:1485 Rx 1 0x217 s 8 00 00 00 00 00 19 A1 69 
02:01:03:2132 Rx 1 0x1A8 s 5 80 00 00 00 80 
02:01:03:2880 Rx 1 0x217 s 8 00 00 00 00 00 19 A1 69 
02:01:03:3394 Rx 1 0x1A8 s 5 80 00 00 00 80 
02:01:03:4026 Rx 1 0x217 s 5 80 00 02 00 00 
02:01:03:5430 Rx 1 0x51F s 8 00 00 00 00 00 19 A1 69 
02:01:03:6041 Rx 1 0x1A8 s 8 F2 1D B2 C8 D8 00 06 00 
02:01:03:7632 Rx 1 0x217 s 8 00 00 00 00 00 19 A1 69 
02:01:03:8239 Rx 1 0x1A8 s 5 80 00 00 00 80 
02:01:03:8879 Rx 1 0x217 s 8 00 00 00 00 00 19 A1 69 
02:01:03:9533 Rx 1 0x161 s 6 10 00 00 00 01 00 
02:01:04:0144 Rx 1 0x217 s 5 80 00 02 00 00 
02:01:04:1365 Rx 1 0x217 s 8 00 00 00 00 00 19 A1 69 
02:01:04:2002 Rx 1 0x1A8 s 5 00 00 00 00 00 
02:01:04:2847 Rx 1 0x21F s 8 00 00 00 00 00 19 A1 69 
02:01:04:3403 Rx 1 0x1A8 s 5 00 00 00 00 00 
02:01:04:4031 Rx 1 0x21F s 5 80 00 02 00 00 
02:01:04:4848 Rx 1 0x51F s 5 00 00 00 00 00 
02:01:04:5434 Rx 1 0x0E6 s 8 F2 1D B2 C8 D8 00 06 00 
02:01:04:5978 Rx 1 0x21F s 5 00 00 00 00 00 
02:01:04:7868 Rx 1 0x21F s 5 00 00 00 00 00 
02:01:04:8415 Rx 1 0x0E6 s 8 00 00 00 00 00 19 A1 69 
02:01:04:9029 Rx 1 0x21F s 8 00 00 00 00 00 19 A1 69 
02:01:04:9902 Rx 1 0x018 s 8 00 00 00 00 00 00 00 00 
02:01:05:0945 Rx 1 0x168 s 5 80 00 00 00 80 
02:01:05:1469 Rx 1 0x21F s 8 00 00 00 00 00 19 A1 69 
02:01:05:2084 Rx 1 0x21F s 8 00 00 00 00 00 00 00 00 
02:01:05:4013 Rx 1 0x21F s 8 00 00 00 00 00 19 A1 69 
02:01:05:4542 Rx 1 0x1A8 s 5 80 00 00 00 80 
02:01:05:5223 Rx 1 0x21F s 8 00 00 00 00 00 19 A1 69 
02:01:05:5847 Rx 1 0x018 s 3 00 00 00 
02:01:05:6467 Rx 1 0x21F s 8 00 00 00 00 00 00 00 00 
02:01:05:7142 Rx 1 0x21F s 8 00 00 00 00 00 19 A1 69 
02:01:05:7845 Rx 1 0x018 s 3 00 00 00 
02:01:05:8483 Rx 1 0x21F s 8 00 00 00 00 00 00 00 00 
02:01:05:9221 Rx 1 0x21F s 8 00 00 00 00 00 19 A1 69 
02:01:05:9882 Rx 1 0x018 s 3 00 00 00 
02:01:06:0514 Rx 1 0x14C s 7 1E 27 0F 00 34 4D D3 
02:01:06:1241 Rx 1 0x21F s 8 00 00 00 00 00 19 A1 69 
02:01:06:1901 Rx 1 0x018 s 3 00 00 00 
02:01:06:2504 Rx 1 0x0E6 s 1 00 
02:01:06:3176 Rx 1 0x21F s 8 00 00 00 00 00 19 A1 69 
02:01:06:3847 Rx 1 0x018 s 3 00 00 00 
02:01:06:4401 Rx 1 0x21F s 8 00 00 00 00 00 00 00 00 
02:01:06:5030 Rx 1 0x21F s 8 00 00 00 00 00 19 A1 69 
02:01:06:6437 Rx 1 0x21F s 8 00 00 00 00 00 00 00 00 
02:01:06:7064 Rx 1 0x168 s 5 80 00 00 00 80 
02:01:07:9628 Rx 1 0x168 s 5 80 00 02 00 00 
02:01:07:9735 Rx 1 0x8000000 x 8 68 2E 00 00 00 00 3E 01 
02:01:07:9853 Rx 1 0x90600 s 8 10 00 00 00 61 03 00 00 
02:01:08:0210 Rx 1 0x167 s 8 80 00 2E 02 81 00 00 00 
02:01:08:0963 Rx 1 0x1A8 s 3 00 00 00 
02:01:08:1527 Rx 1 0x167 s 8 80 00 2E 02 81 00 00 00 
02:01:08:2023 Rx 1 0x168 s 5 80 00 02 00 00 
02:01:08:2853 Rx 1 0x1A8 s 3 00 00 00 
02:01:08:3469 Rx 1 0x21F s 5 80 00 00 00 80 
02:01:08:4092 Rx 1 0x168 s 5 80 00 02 00 00 
02:01:08:4850 Rx 1 0x1A8 s 3 00 00 00 
02:01:08:5512 Rx 1 0x21F s 5 80 00 00 00 80 
02:01:08:6134 Rx 1 0x168 s 5 80 00 02 00 00 
02:01:08:6866 Rx 1 0x1A8 s 3 00 00 00 
02:01:08:7459 Rx 1 0x21F s 5 80 00 00 00 80 
02:01:08:8833 Rx 1 0x168 s 5 80 00 02 00 00 
02:01:08:9421 Rx 1 0x1A8 s 3 00 00 00 
02:01:09:0039 Rx 1 0x168 s 5 80 00 02 00 00 
02:01:09:0989 Rx 1 0x1A8 s 5 00 00 00 00 00 
02:01:09:1844 Rx 1 0x168 s 5 80 00 02 00 00 
02:01:09:2468 Rx 1 0x018 s 5 00 00 00 00 00 
02:01:09:3952 Rx 1 0x1A8 s 5 00 00 00 00 00 
02:01:09:4678 Rx 1 0x168 s 5 00 00 00 00 00 
02:01:09:5249 Rx 1 0x1A8 s 5 00 00 00 00 00 
02:01:09:5856 Rx 1 0x168 s 5 80 00 02 00 00 
02:01:09:6610 Rx 1 0x018 s 5 80 00 00 00 80 
02:01:09:7165 Rx 1 0x1A8 s 5 80 00 00 00 80 
02:01:09:8057 Rx 1 0x168 s 5 80 00 02 00 00 
02:01:09:9024 Rx 1 0x018 s 5 80 00 00 00 80 
02:01:09:9636 Rx 1 0x1A8 s 5 80 00 00 00 80 
02:01:10:0272 Rx 1 0x168 s 5 80 00 02 00 00 
02:01:10:0968 Rx 1 0x1A8 s 5 80 00 00 00 80 
02:01:10:2146 Rx 1 0x168 s 5 80 00 02 00 00 
02:01:10:2752 Rx 1 0x018 s 5 80 00 00 00 80 
02:01:10:3389 Rx 1 0x1A8 s 5 80 00 00 00 80 
02:01:10:4033 Rx 1 0x168 s 5 80 00 02 00 00 
02:01:10:5217 Rx 1 0x1A8 s 5 80 00 00 00 80 
02:01:10:5748 Rx 1 0x14C s 6 4A 4D 38 48 5A 43 
02:01:10:6320 Rx 1 0x168 s 5 80 00 02 00 00 
02:01:10:6988 Rx 1 0x1A8 s 5 80 00 00 00 80 
02:01:10:7858 Rx 1 0x168 s 5 80 00 02 00 00 
02:01:10:8370 Rx 1 0x018 s 5 80 00 00 00 80 
02:01:10:8990 Rx 1 0x1A8 s 5 80 00 00 00 80 
02:01:10:9919 Rx 1 0x168 s 5 80 00 02 00 00 
02:01:11:1369 Rx 1 0x018 s 5 80 00 00 00 80 
02:01:11:1977 Rx 1 0x1A8 s 5 80 00 00 00 80 
02:01:11:3415 Rx 1 0x210 s 5 80 00 00 00 80 
02:01:11:3988 Rx 1 0x14C s 3 00 00 00 
02:01:11:5460 Rx 1 0x1A8 s 6 10 00 00 00 01 00 
02:01:11:6027 Rx 1 0x210 s 5 80 00 00 00 80 
02:01:11:6843 Rx 1 0x1A8 s 6 10 00 00 00 01 00 
02:01:11:7576 Rx 1 0x210 s 5 80 00 00 00 80 
02:01:11:8073 Rx 1 0x168 s 5 80 00 02 00 00 
02:01:11:9547 Rx 1 0x1A8 s 5 80 00 00 00 80 
02:01:12:0117 Rx 1 0x14C s 6 10 00 00 00 01 00 
02:01:12:0888 Rx 1 0x1A8 s 5 80 00 00 00 80 
02:01:12:1435 Rx 1 0x14C s 6 10 00 00 00 01 00 
02:01:12:1923 Rx 1 0x168 s 5 80 00 02 00 00 
02:01:12:2502 Rx 1 0x217 s 8 17 6C 00 00 00 00 11 D0 
02:01:12:3076 Rx 1 0x1A8 s 5 80 00 00 00 80 
02:01:12:3845 Rx 1 0x168 s 5 80 00 02 00 00 
02:01:12:4483 Rx 1 0x018 s 5 80 00 00 00 80 
02:01:12:5087 Rx 1 0x1A8 s 5 80 00 00 00 80 
02:01:12:7029 Rx 1 0x168 s 5 80 00 02 00 00 
02:01:12:8770 Rx 1 0x018 s 5 80 00 00 00 80 
02:01:12:9363 Rx 1 0x168 s 5 80 00 02 00 00 
02:01:12:9962 Rx 1 0x168 s 5 80 00 02 00 00 
02:01:13:1838 Rx 1 0x1A8 s 5 80 00 00 00 80 
02:01:13:2382 Rx 1 0x14C s 8 57 17 80 2E 00 00 00 00 
02:01:13:2946 Rx 1 0x1A8 s 5 80 00 00 00 80 
02:01:13:4907 Rx 1 0x168 s 5 80 00 02 00 00 
02:01:13:6961 Rx 1 0x018 s 5 80 00 00 00 80 
02:01:13:7396 Rx 1 0x168 s 5 80 00 02 00 00 
02:01:13:8042 Rx 1 0x168 s 5 80 00 02 00 00 
02:01:13:9005 Rx 1 0x1A8 s 5 80 00 00 00 80 
02:01:13:9553 Rx 1 0x14C s 7 00 FF FF 02 94 FF FF 
02:01:14:0140 Rx 1 0x168 s 5 80 00 02 00 00 
02:01:14:0853 Rx 1 0x1A8 s 5 80 00 00 00 80 
02:01:14:1373 Rx 1 0x14C s 5 00 00 00 00 00 
02:01:14:1931 Rx 1 0x168 s 5 80 00 02 00 00 
02:01:14:2901 Rx 1 0x1A8 s 5 00 00 00 00 00 
02:01:14:3423 Rx 1 0x0E6 s 5 80 00 00 00 80 
02:01:14:4036 Rx 1 0x168 s 5 80 00 02 00 00 
02:01:14:6183 Rx 1 0x1A8 s 5 00 00 00 00 00 
02:01:14:6705 Rx 1 0x0E6 s 5 80 00 00 00 80 
02:01:14:7333 Rx 1 0x1A8 s 5 80 00 00 00 80 
02:01:14:8019 Rx 1 0x168 s 5 80 00 02 00 00 
02:01:14:8849 Rx 1 0x1A8 s 5 80 00 00 00 80 
02:01:14:9548 Rx 1 0x14C s 7 00 FF FF 02 94 FF FF 
02:01:15:0135 Rx 1 0x168 s 5 80 00 02 00 00 
02:01:15:0850 Rx 1 0x1A8 s 5 80 00 00 00 80 
02:01:15:1390 Rx 1 0x14C s 8 57 17 88 2E 00 00 00 00 
02:01:15:2043 Rx 1 0x168 s 5 80 00 02 00 00 
02:01:15:3348 Rx 1 0x1A8 s 5 80 00 00 00 80 
02:01:15:3911 Rx 1 0x14C s 8 57 17 50 2E 00 00 00 00 
02:01:15:4550 Rx 1 0x0B6 s 8 F2 1D B2 C8 D8 00 06 00 
02:01:15:5269 Rx 1 0x1A8 s 5 80 00 00 00 80 
02:01:15:5844 Rx 1 0x168 s 5 80 00 02 00 00 
02:01:15:6489 Rx 1 0x018 s 5 80 00 00 00 80 
02:01:15:6973 Rx 1 0x210 s 5 80 00 00 00 80 
02:01:15:8461 Rx 1 0x210 s 5 80 00 02 00 00 
02:01:15:9088 Rx 1 0x018 s 5 80 00 00 00 80 
02:01:15:9841 Rx 1 0x168 s 5 80 00 02 00 00 
02:01:16:0569 Rx 1 0x018 s 5 80 00 00 00 80 
02:01:16:1608 Rx 1 0x1A8 s 5 80 00 00 00 80 
02:01:16:2565 Rx 1 0x168 s 5 80 00 02 00 00 
02:01:16:3075 Rx 1 0x1A8 s 5 80 00 00 00 80 
02:01:16:4614 Rx 1 0x168 s 5 80 00 02 00 00 
02:01:16:5149 Rx 1 0x018 s 5 80 00 00 00 80 
02:01:16:5844 Rx 1 0x168 s 5 80 00 02 00 00 
02:01:16:6424 Rx 1 0x018 s 5 80 00 00 00 80 
02:01:16:7025 Rx 1 0x1A8 s 5 80 00 00 00 80 
02:01:16:7845 Rx 1 0x168 s 5 80 00 02 00 00 
02:01:16:8800 Rx 1 0x018 s 5 80 00 00 00 80 
02:01:16:9361 Rx 1 0x1A8 s 5 80 00 00 00 80 
02:01:17:0020 Rx 1 0x168 s 5 80 00 02 00 00 
02:01:17:1780 Rx 1 0x1A8 s 5 80 00 00 00 80 
02:01:17:2325 Rx 1 0x14C s 8 57 17 70 2E 00 00 00 00 
02:01:17:2951 Rx 1 0x1A8 s 5 80 00 00 00 80 
02:01:17:4845 Rx 1 0x168 s 5 80 00 02 00 00 
02:01:17:5472 Rx 1 0x018 s 5 80 00 00 00 80 
02:01:17:6073 Rx 1 0x168 s 5 80 00 02 00 00 
02:01:17:7927 Rx 1 0x1A8 s 5 80 00 00 00 80 
02:01:17:8580 Rx 1 0x14C s 8 57 17 38 2E 00 00 00 00 
02:01:17:9262 Rx 1 0x1A8 s 5 80 00 00 00 80 
02:01:17:9841 Rx 1 0x168 s 5 80 00 02 00 00 
02:01:18:0497 Rx 1 0x018 s 5 80 00 00 00 80 
02:01:18:1079 Rx 1 0x1A8 s 5 80 00 00 00 80 
02:01:18:1851 Rx 1 0x168 s 5 80 00 02 00 00 
02:01:18:2498 Rx 1 0x018 s 5 80 00 00 00 80 
02:01:18:3118 Rx 1 0x1A8 s 5 80 00 00 00 80 
02:01:18:4011 Rx 1 0x168 s 5 80 00 02 00 00 
02:01:18:4505 Rx 1 0x018 s 5 80 00 00 00 80 
02:01:18:5134 Rx 1 0x1A8 s 5 80 00 00 00 80 
02:01:18:5868 Rx 1 0x168 s 5 80 00 02 00 00 
02:01:18:6646 Rx 1 0x018 s 5 80 00 00 00 80 
02:01:18:7181 Rx 1 0x1A8 s 5 80 00 00 00 80 
02:01:18:8177 Rx 1 0x168 s 5 80 00 02 00 00 
02:01:18:9194 Rx 1 0x1A8 s 5 80 00 00 00 80 
02:01:18:9822 Rx 1 0x14C s 7 00 FF FF 02 94 FF FF 
02:01:19:0554 Rx 1 0x168 s 5 80 00 02 00 00 
02:01:19:1107 Rx 1 0x1A8 s 5 80 00 00 00 80 
02:01:20:0195 Rx 1 0x168 s 5 80 00 02 00 00 
02:01:20:0313 Rx 1 0x018 s 5 80 00 00 00 80 
02:01:20:0419 Rx 1 0x5000000 x 0 
02:01:20:0529 Rx 1 0x17570800 x 8 00 00 00 00 3E 01 00 00 
02:01:20:0856 Rx 1 0x210 s 5 80 00 00 00 80 
02:01:20:1375 Rx 1 0x14C s 8 57 17 58 2E 00 00 00 00 
02:01:20:2002 Rx 1 0x210 s 5 80 00 02 00 00 
02:01:20:5358 Rx 1 0x1A8 s 6 10 00 00 00 01 00 
02:01:20:5907 Rx 1 0x210 s 5 80 00 00 00 80 
02:01:20:6651 Rx 1 0x217 s 5 00 00 00 00 00 
02:01:20:7164 Rx 1 0x1A8 s 5 80 00 00 00 80 
02:01:20:7873 Rx 1 0x168 s 5 80 00 02 00 00 
02:01:20:8407 Rx 1 0x018 s 5 80 00 00 00 80 
02:01:20:9035 Rx 1 0x1A8 s 5 80 00 00 00 80 
02:01:20:9902 Rx 1 0x168 s 5 80 00 02 00 00 
02:01:21:0348 Rx 1 0x018 s 5 80 00 00 00 80 
02:01:21:0853 Rx 1 0x1A8 s 5 80 00 00 00 80 
02:01:21:1351 Rx 1 0x14C s 8 58 17 A0 2E 00 00 00 00 
02:01:21:2029 Rx 1 0x168 s 5 80 00 02 00 00 
02:01:21:3767 Rx 1 0x1A8 s 5 80 00 00 00 80 
02:01:21:5444 Rx 1 0x14C s 8 58 17 70 2E 00 00 00 00 
02:01:21:6156 Rx 1 0x1A8 s 5 80 00 00 00 80 
02:01:21:7851 Rx 1 0x1A8 s 5 80 00 00 00 80 
02:01:21:8547 Rx 1 0x14C s 8 58 17 48 2E 00 00 00 00 
02:01:22:0024 Rx 1 0x1A8 s 5 80 00 00 00 80 
02:01:22:0599 Rx 1 0x168 s 5 80 00 02 00 00 
02:01:22:1211 Rx 1 0x1A8 s 5 80 00 00 00 80 
02:01:22:1848 Rx 1 0x168 s 5 80 00 02 00 00 
02:01:22:2443 Rx 1 0x018 s 5 80 00 00 00 80 
02:01:22:3074 Rx 1 0x1A8 s 5 80 00 00 00 80 
02:01:22:4053 Rx 1 0x168 s 5 80 00 02 00 00 
02:01:22:4623 Rx 1 0x018 s 5 80 00 00 00 80 
02:01:22:5274 Rx 1 0x1A8 s 5 80 00 00 00 80 
02:01:22:5844 Rx 1 0x168 s 5 80 00 02 00 00 
02:01:22:6499 Rx 1 0x018 s 5 80 00 00 00 80 
02:01:22:7121 Rx 1 0x1A8 s 5 80 00 00 00 80 
02:01:23:0542 Rx 1 0x168 s 5 80 00 02 00 00 
02:01:23:1112 Rx 1 0x018 s 5 80 00 00 00 80 
02:01:23:2196 Rx 1 0x168 s 5 80 00 02 00 00 
02:01:23:2969 Rx 1 0x018 s 5 80 00 00 00 80 
02:01:23:4231 Rx 1 0x168 s 5 80 00 02 00 00 
02:01:23:4776 Rx 1 0x018 s 5 80 00 00 00 80 
02:01:23:5388 Rx 1 0x1A8 s 5 80 00 00 00 80 
02:01:23:5933 Rx 1 0x168 s 5 80 00 02 00 00 
02:01:23:6558 Rx 1 0x0B6 s 8 0D 00 00 00 00 00 00 00 
02:01:23:7106 Rx 1 0x1A8 s 5 80 00 00 00 80 
02:01:23:7846 Rx 1 0x168 s 5 80 00 02 00 00 
02:01:23:8399 Rx 1 0x018 s 5 80 00 00 00 80 
02:01:23:9003 Rx 1 0x1A8 s 5 80 00 00 00 80 
02:01:24:0390 Rx 1 0x168 s 5 80 00 02 00 00 
02:01:24:0953 Rx 1 0x018 s 5 80 00 00 00 80 
02:01:24:2426 Rx 1 0x168 s 5 80 00 02 00 00 
02:01:24:2994 Rx 1 0x018 s 5 00 00 00 00 00 
02:01:24:4497 Rx 1 0x168 s 5 80 00 02 00 00 
02:01:24:5121 Rx 1 0x018 s 5 80 00 00 00 80 
02:01:24:5869 Rx 1 0x210 s 5 00 00 00 00 00 
02:01:24:6678 Rx 1 0x0E6 s 5 80 00 00 00 80 
02:01:24:7348 Rx 1 0x0E6 s 6 10 00 00 00 01 00 
02:01:24:8148 Rx 1 0x0E6 s 6 10 00 00 00 01 00 
02:01:25:0330 Rx 1 0x0E6 s 5 80 00 00 00 80 
02:01:25:0896 Rx 1 0x14C s 6 10 00 00 00 01 00 
02:01:25:1419 Rx 1 0x16D s 8 00 06 FF FF 7F FF 00 00 
02:01:25:1971 Rx 1 0x168 s 5 80 00 02 00 00 
02:01:25:3225 Rx 1 0x1A8 s 5 80 00 00 00 80 
02:01:25:3924 Rx 1 0x14C s 8 58 17 88 2E 00 00 00 00 
02:01:25:4540 Rx 1 0x210 s 7 00 00 FF 4C 00 00 4A 
02:01:25:5124 Rx 1 0x1A8 s 5 80 00 00 00 80 
02:01:26:0494 Rx 1 0x168 s 5 80 00 02 00 00 
02:01:26:0917 Rx 1 0x018 s 5 80 00 00 00 80 
02:01:26:1031 Rx 1 0x8000000 x 0 
02:01:26:1936 Rx 1 0x168 s 5 80 00 02 00 00 
02:01:26:2408 Rx 1 0x018 s 5 80 00 00 00 80 
02:01:26:2872 Rx 1 0x1A8 s 5 80 00 00 00 80 
02:01:26:3396 Rx 1 0x13E s 4 00 00 10 00 
02:01:26:4038 Rx 1 0x168 s 5 80 00 02 00 00 
02:01:26:4847 Rx 1 0x1A8 s 5 80 00 00 00 80 
02:01:26:5535 Rx 1 0x14C s 6 4A 4D 38 48 5A 43 
02:01:26:5985 Rx 1 0x168 s 5 80 00 02 00 00 
02:01:26:7016 Rx 1 0x1A8 s 5 80 00 00 00 80 
02:01:26:7619 Rx 1 0x14C s 8 58 17 78 2E 00 00 00 00 
02:01:26:8308 Rx 1 0x168 s 5 80 00 02 00 00 
02:01:26:8881 Rx 1 0x1A8 s 5 80 00 00 00 80 
02:01:26:9530 Rx 1 0x128 s 6 10 00 00 00 01 00 
02:01:27:0905 Rx 1 0x168 s 5 80 00 02 00 00 
02:01:27:1522 Rx 1 0x1A8 s 5 80 00 00 00 80 
02:01:27:2092 Rx 1 0x168 s 5 80 00 02 00 00 
02:01:27:3159 Rx 1 0x1A8 s 5 80 00 00 00 80 
02:01:27:3725 Rx 1 0x14C s 8 58 17 60 2E 00 00 00 00 
02:01:27:4387 Rx 1 0x168 s 5 80 00 02 00 00 
02:01:27:5142 Rx 1 0x1A8 s 5 80 00 00 00 80 
02:01:27:5845 Rx 1 0x168 s 5 80 00 02 00 00 
02:01:27:6299 Rx 1 0x018 s 5 80 00 00 00 80 
02:01:27:6848 Rx 1 0x1A8 s 5 80 00 00 00 80 
02:01:27:7470 Rx 1 0x14C s 8 58 17 90 2E 00 00 00 00 
02:01:27:8083 Rx 1 0x168 s 5 80 00 02 00 00 
02:01:27:8857 Rx 1 0x1A8 s 5 80 00 00 00 80 
02:01:27:9511 Rx 1 0x14C s 7 00 FF FF 02 94 FF FF 
02:01:28:0103 Rx 1 0x168 s 5 80 00 02 00 00 
02:01:28:0863 Rx 1 0x1A8 s 5 80 00 00 00 80 
02:01:28:1543 Rx 1 0x14C s 8 58 17 70 2E 00 00 00 00 
02:01:28:2154 Rx 1 0x168 s 5 80 00 02 00 00 
02:01:28:2851 Rx 1 0x1A8 s 5 80 00 00 00 80 
02:01:28:3319 Rx 1 0x14C s 8 58 17 80 2E 00 00 00 00 
02:01:28:3907 Rx 1 0x168 s 5 80 00 02 00 00 
02:01:28:4482 Rx 1 0x0E6 s 8 17 6D 00 00 00 00 2F D0 
02:01:28:5135 Rx 1 0x1A8 s 5 80 00 00 00 80 
02:01:28:5853 Rx 1 0x168 s 5 80 00 02 00 00 
02:01:28:6407 Rx 1 0x018 s 5 80 00 00 00 80 
02:01:28:7030 Rx 1 0x1A8 s 5 80 00 00 00 80 
02:01:28:9531 Rx 1 0x168 s 5 80 00 00 00 80 
02:01:29:0094 Rx 1 0x14C s 5 80 00 02 00 00 
02:01:29:0854 Rx 1 0x210 s 5 80 00 00 00 80 
02:01:29:1560 Rx 1 0x14C s 5 00 00 00 00 00 
02:01:29:2199 Rx 1 0x168 s 6 10 00 00 00 01 00 
02:01:29:2861 Rx 1 0x1A8 s 5 80 00 00 00 80 
02:01:29:3337 Rx 1 0x14C s 5 00 00 00 00 00 
02:01:29:3895 Rx 1 0x168 s 5 80 00 00 00 80 
02:01:29:4503 Rx 1 0x51F s 8 F2 1D B2 C8 D8 00 06 00 
02:01:29:5117 Rx 1 0x1A8 s 5 80 00 00 00 80 
02:01:29:5881 Rx 1 0x168 s 5 00 00 00 00 00 
02:01:29:6481 Rx 1 0x0E6 s 5 80 00 02 00 00 
02:01:29:6942 Rx 1 0x1A8 s 5 00 00 00 00 00 
02:01:29:7475 Rx 1 0x21F s 8 00 00 00 00 00 00 00 00 
02:01:29:8115 Rx 1 0x0E6 s 5 80 00 00 00 80 
02:01:29:8844 Rx 1 0x0E6 s 5 80 00 00 00 80 
02:01:29:9526 Rx 1 0x14C s 7 00 FF FF 02 94 FF FF 
02:01:30:0113 Rx 1 0x0E6 s 5 80 00 00 00 80 
02:01:30:0861 Rx 1 0x1A8 s 5 80 00 00 00 80 
02:01:30:1367 Rx 1 0x13E s 6 09 00 00 20 10 00 
02:01:30:1896 Rx 1 0x168 s 5 80 00 00 00 80 
02:01:30:2409 Rx 1 0x036 s 8 00 06 FF FF 7F FF 00 00 
02:01:30:2890 Rx 1 0x1A8 s 5 80 00 00 00 80 
02:01:30:3475 Rx 1 0x14C s 8 58 17 70 2E 00 00 00 00 
02:01:30:4025 Rx 1 0x168 s 5 80 00 00 00 80 
02:01:30:5920 Rx 1 0x1A8 s 5 80 00 00 00 80 
02:01:30:6509 Rx 1 0x14C s 6 4A 4D 38 48 5A 43 
02:01:30:7060 Rx 1 0x1A8 s 5 80 00 00 00 80 
02:01:30:7972 Rx 1 0x168 s 5 80 00 00 00 80 
02:01:30:8523 Rx 1 0x14C s 5 80 00 02 00 00 
02:01:30:9178 Rx 1 0x1A8 s 5 80 00 00 00 80 
02:01:30:9843 Rx 1 0x168 s 5 80 00 00 00 80 
02:01:31:0410 Rx 1 0x14C s 7 1E 27 0F 00 34 4D D3 
02:01:31:1091 Rx 1 0x1A8 s 5 80 00 00 00 80 
02:01:31:1844 Rx 1 0x168 s 5 80 00 00 00 80 
02:01:31:2436 Rx 1 0x14C s 5 80 00 02 00 00 
02:01:31:3201 Rx 1 0x1A8 s 5 80 00 00 00 80 
02:01:31:3866 Rx 1 0x21F s 5 80 00 00 00 80 
02:01:31:4544 Rx 1 0x018 s 8 58 17 70 2E 00 00 00 00 
02:01:31:5197 Rx 1 0x21F s 5 80 00 00 00 80 
02:01:31:5862 Rx 1 0x21F s 5 80 00 00 00 80 
02:01:31:6516 Rx 1 0x14C s 5 80 00 02 00 00 
02:01:31:7235 Rx 1 0x21F s 5 80 00 00 00 80 
02:01:31:7885 Rx 1 0x21F s 5 80 00 00 00 80 
02:01:31:8403 Rx 1 0x14C s 5 80 00 02 00 00 
02:01:31:9018 Rx 1 0x21F s 5 80 00 00 00 80 
02:01:32:0253 Rx 1 0x21F s 5 80 00 00 00 80 
02:01:32:0904 Rx 1 0x14C s 5 80 00 02 00 00 
02:01:32:1546 Rx 1 0x0B6 s 8 20 00 03 33 D0 00 00 00 
02:01:32:2150 Rx 1 0x21F s 5 80 00 00 00 80 
02:01:32:2866 Rx 1 0x21F s 5 80 00 00 00 80 
02:01:32:3305 Rx 1 0x14C s 8 58 17 60 2E 00 00 00 00 
02:01:32:3857 Rx 1 0x21F s 5 80 00 00 00 80 
02:01:32:4475 Rx 1 0x018 s 7 00 00 FF 4C 00 00 4A 
02:01:32:5150 Rx 1 0x21F s 5 80 00 00 00 80 
02:01:32:6391 Rx 1 0x168 s 3 00 00 00 
02:01:32:7026 Rx 1 0x21F s 5 80 00 02 00 00 
02:01:32:7975 Rx 1 0x168 s 3 00 00 00 
02:01:32:8515 Rx 1 0x21F s 5 80 00 02 00 00 
02:01:32:9025 Rx 1 0x1A8 s 3 00 00 00 
02:01:32:9847 Rx 1 0x168 s 3 00 00 00 
02:01:33:0496 Rx 1 0x21F s 7 1E 27 0F 00 34 4D D3 
02:01:33:1055 Rx 1 0x1A8 s 3 00 00 00 
02:01:33:2044 Rx 1 0x168 s 3 00 00 00 
02:01:33:2538 Rx 1 0x21F s 7 30 27 0F 00 2C 30 CF 
02:01:33:3004 Rx 1 0x210 s 3 00 00 00 
02:01:33:3844 Rx 1 0x210 s 3 00 00 00 
02:01:33:4509 Rx 1 0x21F s 5 80 00 02 00 00 
02:01:33:5126 Rx 1 0x210 s 3 00 00 00 
02:01:33:5844 Rx 1 0x168 s 6 10 00 00 00 01 00 
02:01:33:6493 Rx 1 0x210 s 5 80 00 02 00 00 
02:01:33:7115 Rx 1 0x1A8 s 3 00 00 00 
02:01:33:7847 Rx 1 0x168 s 3 00 00 00 
02:01:33:8294 Rx 1 0x21F s 5 80 00 02 00 00 
02:01:33:8973 Rx 1 0x1A8 s 5 80 00 00 00 80 
02:01:34:0248 Rx 1 0x168 s 5 80 00 00 00 80 
02:01:34:0939 Rx 1 0x14C s 7 1E 27 0F 00 34 4D D3 
02:01:34:1486 Rx 1 0x0E6 s 6 09 00 00 20 10 00 
02:01:34:2106 Rx 1 0x168 s 5 80 00 00 00 80 
02:01:34:2852 Rx 1 0x1A8 s 5 80 00 00 00 80 
02:01:34:3535 Rx 1 0x14C s 3 00 00 00 
02:01:34:4163 Rx 1 0x168 s 5 80 00 00 00 80 
02:01:34:4883 Rx 1 0x1A8 s 5 80 00 00 00 80 
02:01:34:5533 Rx 1 0x128 s 8 F2 80 00 00 00 00 FF FF 
02:01:34:6229 Rx 1 0x168 s 5 80 00 00 00 80 
02:01:34:6875 Rx 1 0x1A8 s 5 00 00 00 00 00 
02:01:34:7415 Rx 1 0x0E6 s 3 00 00 00 
02:01:34:8071 Rx 1 0x168 s 5 00 00 00 00 00 
02:01:34:9955 Rx 1 0x1A8 s 5 00 00 00 00 00 
02:01:35:3334 Rx 1 0x0E6 s 7 00 FF FF 02 94 FF FF 
02:01:35:4021 Rx 1 0x0E6 s 5 80 00 00 00 80 
02:01:35:5087 Rx 1 0x1A8 s 5 80 00 00 00 80 
02:01:35:5694 Rx 1 0x14C s 6 4A 4D 38 48 5A 43 
02:01:35:6440 Rx 1 0x168 s 5 80 00 00 00 80 
02:01:35:7179 Rx 1 0x1A8 s 5 80 00 00 00 80 
02:01:35:8102 Rx 1 0x168 s 5 80 00 00 00 80 
02:01:35:9164 Rx 1 0x1A8 s 5 80 00 00 00 80 
02:01:35:9750 Rx 1 0x14C s 7 00 FF FF 02 94 FF FF 
02:01:36:0368 Rx 1 0x168 s 5 80 00 00 00 80 
02:01:36:1050 Rx 1 0x1A8 s 5 80 00 00 00 80 
02:01:36:2235 Rx 1 0x168 s 5 80 00 00 00 80 
02:01:36:2938 Rx 1 0x14C s 7 30 27 0F 00 2C 30 CF 
02:01:36:3527 Rx 1 0x16D s 8 00 06 FF FF 7F FF 00 00 
02:01:36:4157 Rx 1 0x168 s 5 80 00 00 00 80 
02:01:36:4841 Rx 1 0x1A8 s 5 80 00 00 00 80 
02:01:36:5383 Rx 1 0x14C s 6 4A 4D 38 48 5A 43 
02:01:36:6001 Rx 1 0x168 s 5 80 00 00 00 80 
02:01:36:7424 Rx 1 0x1A8 s 5 80 00 00 00 80 
02:01:36:8055 Rx 1 0x14C s 8 58 17 88 2E 00 00 00 00 
02:01:36:9503 Rx 1 0x1A8 s 5 80 00 00 00 80 
02:01:37:0103 Rx 1 0x14C s 7 00 FF FF 02 94 FF FF 
02:01:37:0845 Rx 1 0x1A8 s 5 80 00 00 00 80 
02:01:37:1516 Rx 1 0x14C s 8 58 17 68 2E 00 00 00 00 
02:01:37:2132 Rx 1 0x168 s 5 80 00 00 00 80 
02:01:37:3307 Rx 1 0x1A8 s 5 80 00 00 00 80 
02:01:37:3966 Rx 1 0x14C s 8 58 17 68 2E 00 00 00 00 
02:01:37:5358 Rx 1 0x1A8 s 5 80 00 00 00 80 
02:01:37:5981 Rx 1 0x14C s 6 4A 4D 38 48 5A 43 
02:01:37:6855 Rx 1 0x210 s 5 80 00 00 00 80 
02:01:37:7470 Rx 1 0x14C s 8 58 17 58 2E 00 00 00 00 
02:01:37:8061 Rx 1 0x210 s 5 80 00 00 00 80 
02:01:37:8891 Rx 1 0x210 s 5 80 00 00 00 80 
02:01:37:9496 Rx 1 0x14C s 7 00 FF FF 02 94 FF FF 
02:01:37:9980 Rx 1 0x210 s 5 80 00 00 00 80 
02:01:38:0429 Rx 1 0x1BE s 8 00 00 00 00 00 19 A1 69 
02:01:38:0919 Rx 1 0x1A8 s 5 80 00 00 00 80 
02:01:38:1493 Rx 1 0x14C s 8 58 17 60 2E 00 00 00 00 
02:01:38:2066 Rx 1 0x168 s 5 80 00 00 00 80 
02:01:38:2871 Rx 1 0x1A8 s 5 80 00 00 00 80 
02:01:38:3447 Rx 1 0x14C s 6 10 00 00 00 01 00 
02:01:38:4244 Rx 1 0x168 s 5 80 00 00 00 80 
02:01:38:4841 Rx 1 0x1A8 s 5 80 00 00 00 80 
02:01:38:5344 Rx 1 0x14C s 6 4A 4D 38 48 5A 43 
02:01:38:5852 Rx 1 0x168 s 5 80 00 00 00 80 
02:01:38:6451 Rx 1 0x14C s 8 58 17 78 2E 00 00 00 00 
02:01:38:6903 Rx 1 0x1A8 s 5 80 00 00 00 80 
02:01:38:7433 Rx 1 0x036 s 7 03 34 40 00 00 84 04 
02:01:38:8019 Rx 1 0x168 s 5 80 00 00 00 80 
02:01:38:8852 Rx 1 0x1A8 s 5 80 00 00 00 80 
02:01:38:9399 Rx 1 0x14C s 7 00 FF FF 02 94 FF FF 
02:01:38:9861 Rx 1 0x14C s 7 1E 27 0F 00 34 4D D3 
02:01:39:0369 Rx 1 0x2A1 s 5 80 00 02 00 00 
02:01:39:0941 Rx 1 0x14C s 8 58 17 70 2E 00 00 00 00 
02:01:39:1855 Rx 1 0x14C s 5 80 00 02 00 00 
02:01:39:2288 Rx 1 0x018 s 7 30 27 0F 00 2C 30 CF 
02:01:39:2860 Rx 1 0x14C s 5 00 00 00 00 00 
02:01:39:3415 Rx 1 0x0E6 s 8 58 17 48 2E 00 00 00 00 
02:01:39:3858 Rx 1 0x14C s 5 80 00 02 00 00 
02:01:39:4660 Rx 1 0x018 s 8 58 17 70 2E 00 00 00 00 
02:01:39:5513 Rx 1 0x14C s 6 4A 4D 38 48 5A 43 
02:01:39:6134 Rx 1 0x14C s 5 00 00 00 00 00 
02:01:39:6852 Rx 1 0x14C s 5 00 00 00 00 00 
02:01:39:7517 Rx 1 0x0E6 s 8 58 17 60 2E 00 00 00 00 
02:01:39:8145 Rx 1 0x0E6 s 5 80 00 00 00 80 
02:01:39:8693 Rx 1 0x018 s 4 00 00 10 00 
02:01:39:9260 Rx 1 0x0E6 s 5 80 00 00 00 80 
02:01:39:9869 Rx 1 0x0E6 s 5 80 00 00 00 80 
02:01:40:0334 Rx 1 0x14C s 7 1E 27 0F 00 34 4D D3 
02:01:40:0852 Rx 1 0x14C s 8 58 17 68 2E 00 00 00 00 
02:01:40:1400 Rx 1 0x13E s 6 09 00 00 20 10 00 
02:01:40:1921 Rx 1 0x14C s 7 30 27 0F 00 2C 30 CF 
02:01:40:2383 Rx 1 0x0E6 s 5 80 00 00 00 80 
02:01:40:2878 Rx 1 0x14C s 8 58 17 98 2E 00 00 00 00 
02:01:40:3452 Rx 1 0x0B6 s 8 01 03 92 40 00 D0 00 F0 
02:01:40:4124 Rx 1 0x14C s 5 80 00 02 00 00 
02:01:40:4889 Rx 1 0x14C s 6 4A 4D 38 48 5A 43 
02:01:40:5381 Rx 1 0x3B6 s 8 58 17 50 2E 00 00 00 00 
02:01:40:6064 Rx 1 0x14C s 5 80 00 02 00 00 
02:01:40:6977 Rx 1 0x14C s 8 58 17 70 2E 00 00 00 00 
02:01:40:7554 Rx 1 0x13E s 8 03 03 92 40 00 D0 00 10 
02:01:40:8013 Rx 1 0x14C s 5 80 00 02 00 00 
02:01:40:8853 Rx 1 0x14C s 7 00 FF FF 02 94 FF FF 
02:01:40:9403 Rx 1 0x221 s 8 58 17 68 2E 00 00 00 00 
02:01:40:9997 Rx 1 0x14C s 7 1E 27 0F 00 34 4D D3 
02:01:41:0518 Rx 1 0x17E s 8 80 DE 48 40 00 00 00 00 
02:01:41:1123 Rx 1 0x14C s 8 58 17 50 2E 00 00 00 00 
02:01:41:1843 Rx 1 0x14C s 7 30 27 0F 00 2C 30 CF 
02:01:41:2363 Rx 1 0x261 s 5 80 00 02 00 00 
02:01:41:2943 Rx 1 0x14C s 8 58 17 70 2E 00 00 00 00 
02:01:41:3443 Rx 1 0x13E s 4 00 00 10 00 
02:01:41:3923 Rx 1 0x14C s 5 80 00 02 00 00 
02:01:41:4371 Rx 1 0x210 s 8 20 00 03 34 60 00 00 00 
02:01:41:4838 Rx 1 0x14C s 6 4A 4D 38 48 5A 43 
02:01:41:5337 Rx 1 0x3B6 s 8 58 17 78 2E 00 00 00 00 
02:01:41:5842 Rx 1 0x14C s 5 80 00 02 00 00 
02:01:41:6433 Rx 1 0x018 s 8 58 17 48 2E 00 00 00 00 
02:01:41:7000 Rx 1 0x14C s 8 58 17 60 2E 00 00 00 00 
02:01:41:7857 Rx 1 0x14C s 5 80 00 02 00 00 
02:01:41:8411 Rx 1 0x018 s 8 58 17 80 2E 00 00 00 00 
02:01:41:8893 Rx 1 0x14C s 7 00 FF FF 02 94 FF FF 
02:01:41:9350 Rx 1 0x036 s 8 80 00 2E 02 81 00 00 00 
02:01:41:9859 Rx 1 0x14C s 7 1E 27 0F 00 34 4D D3 
02:01:42:0290 Rx 1 0x2A1 s 5 80 00 02 00 00 
02:01:42:0870 Rx 1 0x14C s 8 58 17 70 2E 00 00 00 00 
02:01:42:1412 Rx 1 0x13E s 6 09 00 00 20 10 00 
02:01:42:1846 Rx 1 0x14C s 7 30 27 0F 00 2C 30 CF 
02:01:42:2343 Rx 1 0x261 s 5 80 00 02 00 00 
02:01:42:2844 Rx 1 0x14C s 8 58 17 80 2E 00 00 00 00 
02:01:42:3457 Rx 1 0x13E s 4 00 00 10 00 
02:01:42:5359 Rx 1 0x14C s 5 80 00 02 00 00 
02:01:42:6000 Rx 1 0x14C s 6 10 00 00 00 01 00 
02:01:42:6894 Rx 1 0x14C s 6 10 00 00 00 01 00 
02:01:42:7536 Rx 1 0x210 s 8 58 17 98 2E 00 00 00 00 
02:01:42:8154 Rx 1 0x14C s 6 10 00 00 00 01 00 
02:01:42:8873 Rx 1 0x14C s 7 00 FF FF 02 94 FF FF 
02:01:42:9426 Rx 1 0x13E s 6 10 00 00 00 01 00 
02:01:43:0026 Rx 1 0x14C s 7 1E 27 0F 00 34 4D D3 
02:01:43:0847 Rx 1 0x14C s 8 58 17 98 2E 00 00 00 00 
02:01:43:1417 Rx 1 0x13E s 6 09 00 00 20 10 00 
02:01:43:2845 Rx 1 0x14C s 7 30 27 0F 00 2C 30 CF 
02:01:43:3427 Rx 1 0x14C s 8 58 17 50 2E 00 00 00 00 
02:01:43:3953 Rx 1 0x14C s 5 80 00 02 00 00 
02:01:43:4568 Rx 1 0x167 s 8 17 6C 00 00 00 00 4B D0 
02:01:43:5155 Rx 1 0x14C s 6 4A 4D 38 48 5A 43 
02:01:43:5836 Rx 1 0x14C s 5 80 00 02 00 00 
02:01:43:6293 Rx 1 0x018 s 8 58 17 50 2E 00 00 00 00 
02:01:43:6856 Rx 1 0x14C s 8 58 17 60 2E 00 00 00 00 
02:01:43:7426 Rx 1 0x13E s 8 03 03 92 40 00 D0 00 10 
02:01:43:7963 Rx 1 0x14C s 5 80 00 02 00 00 
02:01:43:9035 Rx 1 0x14C s 7 00 FF FF 02 94 FF FF 
02:01:43:9665 Rx 1 0x221 s 8 58 17 90 2E 00 00 00 00 
02:01:44:0247 Rx 1 0x14C s 7 1E 27 0F 00 34 4D D3 
02:01:44:0890 Rx 1 0x14C s 8 58 17 70 2E 00 00 00 00 
02:01:44:1435 Rx 1 0x128 s 3 00 00 00 
02:01:44:1972 Rx 1 0x14C s 7 30 27 0F 00 2C 30 CF 
02:01:44:2899 Rx 1 0x14C s 8 59 17 88 2E 00 00 00 00 
02:01:44:3537 Rx 1 0x13E s 5 00 00 00 00 00 
02:01:44:4214 Rx 1 0x14C s 5 00 00 00 00 00 
02:01:44:4846 Rx 1 0x14C s 6 4A 4D 38 48 5A 43 
02:01:44:5348 Rx 1 0x3B6 s 5 00 00 00 00 00 
02:01:44:5872 Rx 1 0x14C s 5 00 00 00 00 00 
02:01:44:6565 Rx 1 0x1A1 s 8 F2 80 00 00 00 00 FF FF 
02:01:44:7120 Rx 1 0x14C s 5 00 00 00 00 00 
02:01:44:7859 Rx 1 0x14C s 5 00 00 00 00 00 
02:01:44:8377 Rx 1 0x0E6 s 5 80 00 02 00 00 
02:01:44:9010 Rx 1 0x14C s 5 00 00 00 00 00 
02:01:45:0346 Rx 1 0x14C s 7 1E 27 0F 00 34 4D D3 
02:01:45:0848 Rx 1 0x2A1 s 5 80 00 02 00 00 
02:01:45:1567 Rx 1 0x14C s 8 59 17 98 2E 00 00 00 00 
02:01:45:2143 Rx 1 0x14C s 7 30 27 0F 00 2C 30 CF 
02:01:45:2842 Rx 1 0x14C s 8 59 17 58 2E 00 00 00 00 
02:01:45:3479 Rx 1 0x13E s 4 00 00 10 00 
02:01:45:4001 Rx 1 0x14C s 5 80 00 02 00 00 
02:01:45:5325 Rx 1 0x14C s 6 4A 4D 38 48 5A 43 
02:01:45:6187 Rx 1 0x3B6 s 8 59 17 70 2E 00 00 00 00 
02:01:45:6837 Rx 1 0x21F s 8 00 00 00 0F 21 00 00 A0 
02:01:45:7572 Rx 1 0x14C s 8 59 17 40 2E 00 00 00 00 
02:01:45:8312 Rx 1 0x14C s 5 80 00 02 00 00 
02:01:45:8872 Rx 1 0x14C s 7 00 FF FF 02 94 FF FF 
02:01:45:9617 Rx 1 0x217 s 8 21 10 00 00 00 80 A0 01 
02:01:46:0279 Rx 1 0x14C s 7 1E 27 0F 00 34 4D D3 
02:01:46:0905 Rx 1 0x14C s 8 59 17 68 2E 00 00 00 00 
02:01:46:1441 Rx 1 0x167 s 5 00 00 00 00 00 
02:01:46:1980 Rx 1 0x14C s 7 30 27 0F 00 2C 30 CF 
02:01:46:2847 Rx 1 0x14C s 8 59 17 80 2E 00 00 00 00 
02:01:46:3379 Rx 1 0x13E s 4 00 00 10 00 
02:01:46:4012 Rx 1 0x14C s 5 80 00 02 00 00 
02:01:46:4848 Rx 1 0x14C s 6 4A 4D 38 48 5A 43 
02:01:46:5352 Rx 1 0x3B6 s 8 59 17 48 2E 00 00 00 00 
02:01:46:5864 Rx 1 0x14C s 5 80 00 02 00 00 
02:01:46:6417 Rx 1 0x17E s 8 F2 80 00 00 00 00 FF FF 
02:01:46:6962 Rx 1 0x14C s 8 59 17 60 2E 00 00 00 00 
02:01:46:7840 Rx 1 0x210 s 5 80 00 02 00 00 
02:01:46:8319 Rx 1 0x018 s 8 59 17 60 2E 00 00 00 00 
02:01:46:8941 Rx 1 0x14C s 6 10 00 00 00 01 00 
02:01:46:9440 Rx 1 0x16D s 8 00 06 FF FF 7F FF 00 00 
02:01:47:0135 Rx 1 0x14C s 6 10 00 00 00 01 00 
02:01:47:1462 Rx 1 0x14C s 6 10 00 00 00 01 00 
02:01:47:2085 Rx 1 0x210 s 8 59 17 90 2E 00 00 00 00 
02:01:47:2933 Rx 1 0x14C s 8 59 17 58 2E 00 00 00 00 
02:01:47:3497 Rx 1 0x13E s 6 10 00 00 00 01 00 
02:01:47:4151 Rx 1 0x14C s 5 80 00 02 00 00 
02:01:47:4843 Rx 1 0x14C s 6 4A 4D 38 48 5A 43 
02:01:47:5402 Rx 1 0x3B6 s 8 59 17 80 2E 00 00 00 00 
02:01:47:6016 Rx 1 0x14C s 5 80 00 02 00 00 
02:01:47:6854 Rx 1 0x14C s 8 59 17 50 2E 00 00 00 00 
02:01:47:7463 Rx 1 0x13E s 8 02 03 92 40 00 D0 00 10 
02:01:47:8054 Rx 1 0x14C s 5 80 00 02 00 00 
02:01:47:9058 Rx 1 0x14C s 7 00 FF FF 02 94 FF FF 
02:01:48:0425 Rx 1 0x14C s 7 1E 27 0F 00 34 4D D3 
02:01:48:1108 Rx 1 0x2A1 s 8 59 17 68 2E 00 00 00 00 
02:01:48:2174 Rx 1 0x14C s 7 30 27 0F 00 2C 30 CF 
02:01:48:2738 Rx 1 0x261 s 5 80 00 02 00 00 
02:01:48:3353 Rx 1 0x14C s 8 59 17 68 2E 00 00 00 00 
02:01:48:3962 Rx 1 0x14C s 5 80 00 02 00 00 
02:01:48:5114 Rx 1 0x14C s 6 4A 4D 38 48 5A 43 
02:01:48:5589 Rx 1 0x3B6 s 8 59 17 58 2E 00 00 00 00 
02:01:48:6222 Rx 1 0x14C s 5 80 00 02 00 00 
02:01:48:6846 Rx 1 0x14C s 8 59 17 90 2E 00 00 00 00 
02:01:48:7432 Rx 1 0x13E s 8 01 03 92 40 00 D0 00 10 
02:01:48:7987 Rx 1 0x14C s 5 80 00 02 00 00 
02:01:48:9210 Rx 1 0x14C s 7 00 FF FF 02 94 FF FF 
02:01:48:9807 Rx 1 0x221 s 8 59 17 70 2E 00 00 00 00 
02:01:49:0397 Rx 1 0x14C s 7 1E 27 0F 00 34 4D D3 
02:01:49:1029 Rx 1 0x14C s 8 59 17 60 2E 00 00 00 00 
02:01:49:2923 Rx 1 0x14C s 7 30 27 0F 00 2C 30 CF 
02:01:49:3566 Rx 1 0x261 s 8 59 17 70 2E 00 00 00 00 
02:01:49:4241 Rx 1 0x14C s 5 80 00 02 00 00 
02:01:49:4859 Rx 1 0x14C s 6 4A 4D 38 48 5A 43 
02:01:49:5454 Rx 1 0x3B6 s 8 59 17 78 2E 00 00 00 00 
02:01:49:6052 Rx 1 0x14C s 5 00 00 00 00 00 
02:01:49:7995 Rx 1 0x14C s 5 00 00 00 00 00 
02:01:49:8550 Rx 1 0x0E6 s 8 59 17 78 2E 00 00 00 00 
02:01:49:9197 Rx 1 0x14C s 5 00 00 00 00 00 
02:01:49:9876 Rx 1 0x14C s 5 00 00 00 00 00 
02:01:50:0583 Rx 1 0x17E s 8 80 DE 48 40 00 00 00 00 
02:01:50:1204 Rx 1 0x14C s 8 59 17 38 2E 00 00 00 00 
02:01:50:1844 Rx 1 0x14C s 7 30 27 0F 00 2C 30 CF 
02:01:50:2724 Rx 1 0x261 s 8 59 17 68 2E 00 00 00 00 
02:01:50:3320 Rx 1 0x14C s 8 59 17 90 2E 00 00 00 00 
02:01:50:3877 Rx 1 0x14C s 5 80 00 02 00 00 
02:01:50:4532 Rx 1 0x51F s 8 80 DE 48 40 00 00 00 00 
02:01:50:5037 Rx 1 0x14C s 6 4A 4D 38 48 5A 43 
02:01:50:6694 Rx 1 0x14C s 5 80 00 02 00 00 
02:01:50:7292 Rx 1 0x018 s 8 59 17 80 2E 00 00 00 00 
02:01:50:8015 Rx 1 0x14C s 8 59 17 50 2E 00 00 00 00 
02:01:50:9250 Rx 1 0x14C s 7 00 FF FF 02 94 FF FF 
02:01:50:9794 Rx 1 0x221 s 8 59 17 88 2E 00 00 00 00 
02:01:51:0419 Rx 1 0x14C s 7 1E 27 0F 00 34 4D D3 
02:01:51:1056 Rx 1 0x14C s 8 59 17 80 2E 00 00 00 00 
02:01:51:1849 Rx 1 0x210 s 7 30 27 0F 00 2C 30 CF 
02:01:51:2520 Rx 1 0x261 s 8 59 17 68 2E 00 00 00 00 
02:01:51:3180 Rx 1 0x210 s 8 59 17 58 2E 00 00 00 00 
02:01:51:3943 Rx 1 0x14C s 6 10 00 00 00 01 00 
02:01:51:4505 Rx 1 0x210 s 8 59 17 88 2E 00 00 00 00 
02:01:51:5142 Rx 1 0x14C s 6 4A 4D 38 48 5A 43 
02:01:51:6859 Rx 1 0x14C s 6 10 00 00 00 01 00 
02:01:51:7528 Rx 1 0x210 s 8 59 17 60 2E 00 00 00 00 
02:01:51:8075 Rx 1 0x14C s 8 59 17 70 2E 00 00 00 00 
02:01:51:8852 Rx 1 0x14C s 7 00 FF FF 02 94 FF FF 
02:01:51:9496 Rx 1 0x221 s 8 59 17 98 2E 00 00 00 00 
02:01:52:0587 Rx 1 0x14C s 7 1E 27 0F 00 34 4D D3 
02:01:52:1227 Rx 1 0x14C s 8 59 17 68 2E 00 00 00 00 
02:01:52:1856 Rx 1 0x14C s 7 30 27 0F 00 2C 30 CF 
02:01:52:2474 Rx 1 0x018 s 8 02 03 92 40 00 D0 00 10 
02:01:52:3115 Rx 1 0x14C s 8 59 17 80 2E 00 00 00 00 
02:01:52:3842 Rx 1 0x14C s 8 59 17 60 2E 00 00 00 00 
02:01:52:4362 Rx 1 0x13E s 5 80 00 02 00 00 
02:01:52:5112 Rx 1 0x14C s 6 4A 4D 38 48 5A 43 
02:01:52:5937 Rx 1 0x14C s 8 59 17 88 2E 00 00 00 00 
02:01:52:6560 Rx 1 0x13E s 5 80 00 02 00 00 
02:01:52:8177 Rx 1 0x14C s 8 59 17 80 2E 00 00 00 00 
02:01:52:9180 Rx 1 0x14C s 8 59 17 60 2E 00 00 00 00 
02:01:52:9747 Rx 1 0x14C s 7 00 FF FF 02 94 FF FF 
02:01:53:0358 Rx 1 0x14C s 7 1E 27 0F 00 34 4D D3 
02:01:53:0946 Rx 1 0x14C s 8 59 17 90 2E 00 00 00 00 
02:01:53:2216 Rx 1 0x14C s 7 30 27 0F 00 2C 30 CF 
02:01:53:2886 Rx 1 0x261 s 8 59 17 38 2E 00 00 00 00 
02:01:53:3472 Rx 1 0x14C s 8 59 17 A8 2E 00 00 00 00 
02:01:53:4073 Rx 1 0x14C s 8 59 17 60 2E 00 00 00 00 
02:01:53:5325 Rx 1 0x14C s 6 4A 4D 38 48 5A 43 
02:01:53:5932 Rx 1 0x3B6 s 8 59 17 60 2E 00 00 00 00 
02:01:53:7107 Rx 1 0x14C s 8 59 17 58 2E 00 00 00 00 
02:01:53:7726 Rx 1 0x13E s 8 02 03 92 40 00 D0 00 10 
02:01:53:8219 Rx 1 0x14C s 8 59 17 88 2E 00 00 00 00 
02:01:53:8835 Rx 1 0x14C s 7 00 FF FF 02 94 FF FF 
02:01:53:9348 Rx 1 0x221 s 8 59 17 50 2E 00 00 00 00 
02:01:53:9949 Rx 1 0x14C s 7 1E 27 0F 00 34 4D D3 
02:01:54:0466 Rx 1 0x0F6 s 8 00 00 00 0F 21 00 00 A0 
02:01:54:1120 Rx 1 0x14C s 8 59 17 40 2E 00 00 00 00 
02:01:54:1845 Rx 1 0x14C s 7 30 27 0F 00 2C 30 CF 
02:01:54:2787 Rx 1 0x261 s 8 59 17 68 2E 00 00 00 00 
02:01:54:3538 Rx 1 0x14C s 8 59 17 60 2E 00 00 00 00 
02:01:54:4067 Rx 1 0x14C s 8 59 17 68 2E 00 00 00 00 
02:01:54:4882 Rx 1 0x14C s 6 4A 4D 38 48 5A 43 
02:01:54:5394 Rx 1 0x3B6 s 8 59 17 70 2E 00 00 00 00 
02:01:54:5952 Rx 1 0x14C s 8 59 17 68 2E 00 00 00 00 
02:01:54:6836 Rx 1 0x14C s 5 00 00 00 00 00 
02:01:54:7277 Rx 1 0x0E6 s 8 59 17 98 2E 00 00 00 00 
02:01:54:7848 Rx 1 0x14C s 5 00 00 00 00 00 
02:01:54:8459 Rx 1 0x13E s 5 80 00 02 00 00 
02:01:54:9076 Rx 1 0x14C s 5 00 00 00 00 00 
02:01:54:9833 Rx 1 0x14C s 5 00 00 00 00 00 
02:01:55:0403 Rx 1 0x0E6 s 8 59 17 90 2E 00 00 00 00 
02:01:55:0949 Rx 1 0x14C s 5 00 00 00 00 00 
02:01:55:2744 Rx 1 0x14C s 7 30 27 0F 00 2C 30 CF 
02:01:55:3304 Rx 1 0x261 s 8 59 17 70 2E 00 00 00 00 
02:01:55:3935 Rx 1 0x14C s 8 59 17 78 2E 00 00 00 00 
02:01:55:5510 Rx 1 0x14C s 6 4A 4D 38 48 5A 43 
02:01:55:6121 Rx 1 0x3B6 s 8 59 17 A0 2E 00 00 00 00 
02:01:55:6848 Rx 1 0x210 s 8 59 17 68 2E 00 00 00 00 
02:01:55:7379 Rx 1 0x260 s 8 17 6C 00 00 00 00 61 D0 
02:01:55:8015 Rx 1 0x14C s 6 10 00 00 00 01 00 
02:01:55:9902 Rx 1 0x14C s 7 00 FF FF 02 94 FF FF 
02:01:56:0523 Rx 1 0x221 s 8 59 17 B0 2E 00 00 00 00 
02:01:56:1162 Rx 1 0x14C s 8 59 17 40 2E 00 00 00 00 
02:01:56:1847 Rx 1 0x14C s 7 30 27 0F 00 2C 30 CF 
02:01:56:2464 Rx 1 0x261 s 8 59 17 80 2E 00 00 00 00 
02:01:56:3022 Rx 1 0x14C s 8 59 17 70 2E 00 00 00 00 
02:01:56:3899 Rx 1 0x14C s 8 59 17 68 2E 00 00 00 00 
02:01:56:4450 Rx 1 0x13E s 5 80 00 02 00 00 
02:01:56:5065 Rx 1 0x14C s 6 4A 4D 38 48 5A 43 
02:01:56:5844 Rx 1 0x14C s 8 59 17 70 2E 00 00 00 00 
02:01:56:6481 Rx 1 0x13E s 5 80 00 02 00 00 
02:01:56:7107 Rx 1 0x14C s 8 59 17 90 2E 00 00 00 00 
02:01:56:7839 Rx 1 0x14C s 8 59 17 50 2E 00 00 00 00 
02:01:56:8347 Rx 1 0x13E s 5 80 00 02 00 00 
02:01:56:8996 Rx 1 0x221 s 8 59 17 78 2E 00 00 00 00 
02:01:57:0157 Rx 1 0x2A1 s 8 59 17 90 2E 00 00 00 00 
02:01:57:0688 Rx 1 0x13E s 5 80 00 02 00 00 
02:01:57:1296 Rx 1 0x14C s 8 59 17 78 2E 00 00 00 00 
02:01:57:1932 Rx 1 0x261 s 8 59 17 48 2E 00 00 00 00 
02:01:57:3194 Rx 1 0x14C s 8 59 17 50 2E 00 00 00 00 
02:01:57:3830 Rx 1 0x13E s 4 00 00 10 00 
02:01:57:4511 Rx 1 0x14C s 8 59 17 80 2E 00 00 00 00 
02:01:57:5056 Rx 1 0x3B6 s 8 59 17 80 2E 00 00 00 00 
02:01:57:5997 Rx 1 0x14C s 8 59 17 70 2E 00 00 00 00 
02:01:57:6632 Rx 1 0x13E s 5 80 00 02 00 00 
02:01:57:7331 Rx 1 0x14C s 8 59 17 60 2E 00 00 00 00 
02:01:57:7856 Rx 1 0x14C s 8 59 17 78 2E 00 00 00 00 
02:01:57:9353 Rx 1 0x227 s 8 17 6F 00 00 00 00 65 D0 
02:01:57:9884 Rx 1 0x221 s 8 59 17 58 2E 00 00 00 00 
02:01:58:0570 Rx 1 0x0F6 s 6 10 00 00 00 01 00 
02:01:58:1129 Rx 1 0x14C s 8 59 17 78 2E 00 00 00 00 
02:01:58:1837 Rx 1 0x261 s 8 59 17 60 2E 00 00 00 00 
02:01:58:2449 Rx 1 0x13E s 5 80 00 02 00 00 
02:01:58:3000 Rx 1 0x21F s 8 59 17 80 2E 00 00 00 00 
02:01:58:4308 Rx 1 0x14C s 8 59 17 70 2E 00 00 00 00 
02:01:58:4915 Rx 1 0x13E s 5 80 00 02 00 00 
02:01:58:5495 Rx 1 0x3B6 s 8 59 17 40 2E 00 00 00 00 
02:01:58:6106 Rx 1 0x21F s 8 59 17 88 2E 00 00 00 00 
02:01:58:7538 Rx 1 0x21F s 8 59 17 70 2E 00 00 00 00 
02:01:58:8058 Rx 1 0x13E s 8 03 03 92 40 00 D0 00 10 
02:01:58:9584 Rx 1 0x21F s 7 00 FF FF 02 94 FF FF 
02:01:59:0158 Rx 1 0x221 s 8 59 17 68 2E 00 00 00 00 
02:01:59:0849 Rx 1 0x21F s 8 59 17 58 2E 00 00 00 00 
02:01:59:1469 Rx 1 0x13E s 6 09 00 00 20 10 00 
02:01:59:2657 Rx 1 0x261 s 8 59 17 60 2E 00 00 00 00 
02:01:59:3209 Rx 1 0x21F s 8 59 17 48 2E 00 00 00 00 
02:01:59:3837 Rx 1 0x21F s 8 59 17 70 2E 00 00 00 00 
02:01:59:4385 Rx 1 0x13E s 5 80 00 02 00 00 
02:01:59:5060 Rx 1 0x3B6 s 8 59 17 80 2E 00 00 00 00 
02:01:59:6637 Rx 1 0x21F s 8 59 17 40 2E 00 00 00 00 
02:01:59:7189 Rx 1 0x13E s 5 00 00 00 00 00 
02:01:59:7840 Rx 1 0x14C s 5 00 00 00 00 00 
02:01:59:8402 Rx 1 0x0E6 s 5 80 00 02 00 00 
02:01:59:9038 Rx 1 0x221 s 5 00 00 00 00 00 
02:02:00:0451 Rx 1 0x2A1 s 3 00 00 00 
02:02:00:1087 Rx 1 0x21F s 8 59 17 98 2E 00 00 00 00 
02:02:00:2920 Rx 1 0x210 s 7 30 27 0F 00 2C 30 CF 
02:02:00:3561 Rx 1 0x261 s 3 00 00 00 
02:02:00:4180 Rx 1 0x14C s 3 00 00 00 
02:02:00:5575 Rx 1 0x3B6 s 3 00 00 00 
02:02:00:6252 Rx 1 0x21F s 8 59 17 88 2E 00 00 00 00 
02:02:00:6866 Rx 1 0x14C s 3 00 00 00 
02:02:00:7502 Rx 1 0x21F s 8 59 17 98 2E 00 00 00 00 
02:02:00:8160 Rx 1 0x14C s 3 00 00 00 
02:02:00:8959 Rx 1 0x221 s 3 00 00 00 
02:02:01:0146 Rx 1 0x21F s 8 59 17 68 2E 00 00 00 00 
02:02:01:0724 Rx 1 0x2A1 s 8 59 17 88 2E 00 00 00 00 
02:02:01:1371 Rx 1 0x14C s 8 59 17 50 2E 00 00 00 00 
02:02:01:1997 Rx 1 0x261 s 8 59 17 68 2E 00 00 00 00 
02:02:01:3168 Rx 1 0x14C s 8 59 17 58 2E 00 00 00 00 
02:02:01:3725 Rx 1 0x13E s 3 00 00 00 
02:02:01:4342 Rx 1 0x14C s 8 59 17 80 2E 00 00 00 00 
02:02:01:5032 Rx 1 0x3B6 s 8 59 17 70 2E 00 00 00 00 
02:02:01:5883 Rx 1 0x14C s 8 59 17 50 2E 00 00 00 00 
02:02:01:8057 Rx 1 0x13E s 5 80 00 02 00 00 
02:02:01:8678 Rx 1 0x14C s 8 59 17 80 2E 00 00 00 00 
02:02:01:9307 Rx 1 0x221 s 8 59 17 88 2E 00 00 00 00 
02:02:01:9931 Rx 1 0x2A1 s 8 59 17 58 2E 00 00 00 00 
02:02:02:0924 Rx 1 0x14C s 8 59 17 68 2E 00 00 00 00 
02:02:02:2332 Rx 1 0x13E s 3 00 00 00 
02:02:02:2921 Rx 1 0x261 s 8 59 17 88 2E 00 00 00 00 
02:02:02:3526 Rx 1 0x168 s 5 80 00 00 00 80 
02:02:02:4173 Rx 1 0x14C s 8 59 17 88 2E 00 00 00 00 
02:02:02:5282 Rx 1 0x3B6 s 8 59 17 50 2E 00 00 00 00 
02:02:02:5990 Rx 1 0x13E s 8 10 00 00 01 62 00 A3 05 
02:02:02:6637 Rx 1 0x361 s 5 80 00 02 00 00 
02:02:02:7268 Rx 1 0x14C s 8 59 17 70 2E 00 00 00 00 
02:02:02:8372 Rx 1 0x14C s 8 59 17 50 2E 00 00 00 00 
02:02:03:3360 Rx 1 0x0E6 s 8 00 00 00 0F 21 00 00 A0 
02:02:03:3476 Rx 1 0x8000000 x 0 
02:02:03:9401 Rx 1 0x14C s 8 59 17 70 2E 00 00 00 00 
02:02:03:9850 Rx 1 0x3B6 s 8 59 17 70 2E 00 00 00 00 
02:02:03:9963 Rx 1 0x7000000 s 0 
02:02:04:4974 Rx 1 0x217 s 5 80 00 02 00 00 
02:02:04:5085 Rx 1 0x8000000 x 8 00 00 00 00 71 D0 B6 00 
02:02:05:0679 Rx 1 0x10000 s 0 
02:02:05:6325 Rx 1 0x210 s 8 59 17 78 2E 00 00 00 00 
02:02:05:6437 Rx 1 0x8000000 s 0 
02:02:05:6782 Rx 1 0xD0004092 s 8 60 02 00 00 00 06 10 00 
02:02:05:6894 Rx 1 0x000 x 0 
02:02:06:1733 Rx 1 0x14C s 8 59 17 30 2E 00 00 00 00 
02:02:06:1843 Rx 1 0x8000000 x 8 00 00 00 00 FF FF 17 02 
02:02:06:2332 Rx 1 0x261 s 8 5A 17 70 2E 00 00 00 00 
02:02:06:2959 Rx 1 0x14C s 8 5A 17 88 2E 00 00 00 00 
02:02:06:5333 Rx 1 0x14C s 8 5A 17 70 2E 00 00 00 00 
02:02:06:5934 Rx 1 0x13E s 7 00 00 FF 4C 00 00 4A 
02:02:06:6895 Rx 1 0x14C s 8 5A 17 88 2E 00 00 00 00 
02:02:06:7493 Rx 1 0x13E s 8 01 03 92 40 00 D0 00 10 
02:02:06:8111 Rx 1 0x14C s 8 5A 17 58 2E 00 00 00 00 
02:02:06:8975 Rx 1 0x221 s 8 5A 17 48 2E 00 00 00 00 
02:02:07:2524 Rx 1 0x13E s 7 00 00 FF 4C 00 00 4A 
02:02:07:3146 Rx 1 0x2A1 s 8 5A 17 80 2E 00 00 00 00 
02:02:07:3866 Rx 1 0x14C s 8 5A 17 78 2E 00 00 00 00 
02:02:07:4402 Rx 1 0x13E s 7 00 00 FF 4C 00 00 4A 
02:02:07:5037 Rx 1 0x3B6 s 8 5A 17 58 2E 00 00 00 00 
02:02:07:6593 Rx 1 0x14C s 8 5A 17 88 2E 00 00 00 00 
02:02:07:7209 Rx 1 0x13E s 6 09 00 00 20 10 00 
02:02:07:7862 Rx 1 0x14C s 8 5A 17 80 2E 00 00 00 00 
02:02:07:8469 Rx 1 0x018 s 8 17 6D 00 00 00 00 77 D0 
02:02:07:9134 Rx 1 0x221 s 8 5A 17 80 2E 00 00 00 00 
02:02:07:9841 Rx 1 0x2A1 s 8 5A 17 50 2E 00 00 00 00 
02:02:08:0368 Rx 1 0x13E s 8 10 00 00 01 62 00 A3 05 
02:02:08:1016 Rx 1 0x14C s 8 5A 17 50 2E 00 00 00 00 
02:02:08:4836 Rx 1 0x261 s 8 5A 17 A8 2E 00 00 00 00 
02:02:08:5337 Rx 1 0x13E s 8 01 03 92 40 00 D0 00 10 
02:02:08:5839 Rx 1 0x14C s 8 5A 17 58 2E 00 00 00 00 
02:02:08:6508 Rx 1 0x13E s 6 09 00 00 20 10 00 
02:02:08:7120 Rx 1 0x14C s 8 5A 17 78 2E 00 00 00 00 
02:02:08:7849 Rx 1 0x210 s 8 5A 17 50 2E 00 00 00 00 
02:02:08:8359 Rx 1 0x13E s 4 00 00 10 00 
02:02:08:8987 Rx 1 0x221 s 8 5A 17 70 2E 00 00 00 00 
02:02:09:0978 Rx 1 0x210 s 8 5A 17 70 2E 00 00 00 00 
02:02:09:1633 Rx 1 0x13E s 8 10 00 00 01 62 00 A3 05 
02:02:09:2492 Rx 1 0x261 s 8 5A 17 78 2E 00 00 00 00 
02:02:09:3042 Rx 1 0x14C s 8 5A 17 68 2E 00 00 00 00 
02:02:09:5121 Rx 1 0x14C s 8 5A 17 98 2E 00 00 00 00 
02:02:09:5615 Rx 1 0x13E s 8 F2 80 00 00 00 00 FF FF 
02:02:09:8144 Rx 1 0x14C s 8 5A 17 70 2E 00 00 00 00 
02:02:09:8598 Rx 1 0x14C s 8 5A 17 58 2E 00 00 00 00 
02:02:09:9184 Rx 1 0x221 s 8 5A 17 80 2E 00 00 00 00 
02:02:09:9896 Rx 1 0x2A1 s 5 00 00 00 00 00 
02:02:10:0838 Rx 1 0x0E6 s 8 10 00 00 01 62 00 A3 05 
02:02:10:1465 Rx 1 0x14C s 5 00 00 00 00 00 
02:02:10:2088 Rx 1 0x261 s 8 F2 80 00 00 00 00 FF FF 
02:02:10:2861 Rx 1 0x0E6 s 8 F2 80 00 00 00 00 FF FF 
02:02:10:3499 Rx 1 0x217 s 4 00 00 10 00 
02:02:10:4129 Rx 1 0x0E6 s 8 F2 80 00 00 00 00 FF FF 
02:02:10:4974 Rx 1 0x3B6 s 8 F2 80 00 00 00 00 FF FF 
02:02:10:5553 Rx 1 0x217 s 8 10 00 00 01 62 00 A3 05 
02:02:10:6264 Rx 1 0x14C s 8 F2 80 00 00 00 00 FF FF 
02:02:10:6868 Rx 1 0x217 s 8 5A 17 68 2E 00 00 00 00 
02:02:10:7353 Rx 1 0x13E s 8 03 03 92 40 00 D0 00 10 
02:02:10:7897 Rx 1 0x217 s 8 5A 17 60 2E 00 00 00 00 
02:02:10:8532 Rx 1 0x167 s 8 20 00 03 36 40 00 00 00 
02:02:10:9152 Rx 1 0x221 s 8 5A 17 68 2E 00 00 00 00 
02:02:10:9841 Rx 1 0x2A1 s 8 5A 17 90 2E 00 00 00 00 
02:02:11:0371 Rx 1 0x13E s 8 10 00 00 01 62 00 A3 05 
02:02:11:0870 Rx 1 0x217 s 8 5A 17 80 2E 00 00 00 00 
02:02:11:1541 Rx 1 0x036 s 8 80 00 2E 02 81 60 00 00 
02:02:11:2109 Rx 1 0x217 s 8 5A 17 48 2E 00 00 00 00 
02:02:11:2835 Rx 1 0x217 s 8 5A 17 68 2E 00 00 00 00 
02:02:11:4513 Rx 1 0x13E s 4 00 00 10 00 
02:02:11:5557 Rx 1 0x217 s 8 5A 17 70 2E 00 00 00 00 
02:02:11:6152 Rx 1 0x217 s 8 5A 17 50 2E 00 00 00 00 
02:02:11:6837 Rx 1 0x217 s 8 5A 17 40 2E 00 00 00 00 
02:02:11:7414 Rx 1 0x13E s 8 02 03 92 40 00 D0 00 10 
02:02:11:8034 Rx 1 0x217 s 8 5A 17 78 2E 00 00 00 00 
02:02:11:9632 Rx 1 0x217 s 8 5A 17 68 2E 00 00 00 00 
02:02:12:0337 Rx 1 0x13E s 7 00 00 FF 4C 00 00 4A 
02:02:12:0831 Rx 1 0x217 s 8 5A 17 50 2E 00 00 00 00 
02:02:12:1475 Rx 1 0x13E s 6 09 00 00 20 10 00 
02:02:12:2110 Rx 1 0x217 s 8 5A 17 68 2E 00 00 00 00 
02:02:12:2841 Rx 1 0x217 s 8 5A 17 80 2E 00 00 00 00 
02:02:12:3358 Rx 1 0x13E s 4 00 00 10 00 
02:02:12:3988 Rx 1 0x217 s 8 5A 17 68 2E 00 00 00 00 
02:02:12:5420 Rx 1 0x217 s 8 5A 17 80 2E 00 00 00 00 
02:02:12:5923 Rx 1 0x13E s 8 10 00 00 01 62 00 A3 05 
02:02:12:7820 Rx 1 0x217 s 8 5A 17 80 2E 00 00 00 00 
02:02:12:8411 Rx 1 0x13E s 8 01 03 92 40 00 D0 00 10 
02:02:12:9094 Rx 1 0x217 s 8 5A 17 40 2E 00 00 00 00 
02:02:13:0690 Rx 1 0x217 s 8 5A 17 78 2E 00 00 00 00 
02:02:13:1334 Rx 1 0x13E s 8 10 00 00 01 62 00 A3 05 
02:02:13:1873 Rx 1 0x217 s 8 5A 17 88 2E 00 00 00 00 
02:02:13:2439 Rx 1 0x2A0 s 3 00 00 00 
02:02:13:4027 Rx 1 0x217 s 8 5A 17 80 2E 00 00 00 00 
02:02:13:4614 Rx 1 0x210 s 8 5A 17 68 2E 00 00 00 00 
02:02:13:5307 Rx 1 0x210 s 8 5A 17 70 2E 00 00 00 00 
02:02:13:5947 Rx 1 0x217 s 8 5A 17 70 2E 00 00 00 00 
02:02:13:6545 Rx 1 0x21F s 8 17 6A 00 00 00 00 82 D0 
02:02:13:7120 Rx 1 0x217 s 8 5A 17 88 2E 00 00 00 00 
02:02:13:7840 Rx 1 0x13E s 4 00 00 10 00 
02:02:13:8395 Rx 1 0x227 s 6 10 00 00 00 01 00 
02:02:13:9115 Rx 1 0x13E s 7 00 00 FF 4C 00 00 4A 
02:02:14:0087 Rx 1 0x13E s 8 10 00 00 01 62 00 A3 05 
02:02:14:0743 Rx 1 0x3A7 s 6 10 00 00 00 01 00 
02:02:14:1378 Rx 1 0x13E s 6 09 00 00 20 10 00 
02:02:14:1996 Rx 1 0x13E s 8 01 03 92 40 00 D0 00 10 
02:02:14:3173 Rx 1 0x13E s 4 00 00 10 00 
02:02:14:4186 Rx 1 0x227 s 8 17 6C 00 00 00 00 83 D0 
02:02:14:4814 Rx 1 0x51F s 8 5A 17 98 2E 00 00 00 00 
02:02:14:5425 Rx 1 0x13E s 8 10 00 00 01 62 00 A3 05 
02:02:14:6050 Rx 1 0x13E s 6 09 00 00 20 10 00 
02:02:14:8356 Rx 1 0x13E s 8 02 03 92 40 00 D0 00 10 
02:02:14:8994 Rx 1 0x260 s 5 00 00 00 00 00 
02:02:15:0025 Rx 1 0x13E s 5 00 00 00 00 00 
02:02:15:0443 Rx 1 0x0E6 s 8 10 00 00 01 62 00 A3 05 
02:02:15:1025 Rx 1 0x13E s 5 00 00 00 00 00 
02:02:15:2403 Rx 1 0x0E6 s 8 5A 17 68 2E 00 00 00 00 
02:02:15:3028 Rx 1 0x13E s 8 03 03 92 40 00 D0 00 10 
02:02:15:3838 Rx 1 0x51F s 8 5A 17 70 2E 00 00 00 00 
02:02:15:4481 Rx 1 0x13E s 7 00 00 FF 4C 00 00 4A 
02:02:15:5035 Rx 1 0x13E s 8 10 00 00 01 62 00 A3 05 
02:02:15:6289 Rx 1 0x0E6 s 8 5A 17 88 2E 00 00 00 00 
02:02:15:6916 Rx 1 0x13E s 6 09 00 00 20 10 00 
02:02:15:8519 Rx 1 0x217 s 8 5A 17 58 2E 00 00 00 00 
02:02:15:9050 Rx 1 0x13E s 4 00 00 10 00 
02:02:16:0345 Rx 1 0x2A1 s 8 5A 17 70 2E 00 00 00 00 
02:02:16:1001 Rx 1 0x13E s 8 10 00 00 01 62 00 A3 05 
02:02:16:5516 Rx 1 0x13E s 8 02 03 92 40 00 D0 00 10 
02:02:16:6187 Rx 1 0x260 s 5 80 00 02 00 00 
02:02:16:6295 Rx 1 0x8000000 x 8 00 00 00 00 88 D0 B6 00 
02:02:16:6836 Rx 1 0x13E s 8 03 03 92 40 00 D0 00 10 
02:02:16:7421 Rx 1 0x260 s 8 17 6A 00 00 00 00 88 D0 
02:02:16:8768 Rx 1 0x13E s 4 00 00 10 00 
02:02:16:9396 Rx 1 0x13E s 7 00 00 FF 4C 00 00 4A 
02:02:17:0014 Rx 1 0x13E s 8 10 00 00 01 62 00 A3 05 
02:02:17:0845 Rx 1 0x13E s 6 09 00 00 20 10 00 
02:02:17:1422 Rx 1 0x361 s 8 17 68 00 00 00 00 88 D0 
02:02:17:1949 Rx 1 0x13E s 8 01 03 92 40 00 D0 00 10 
02:02:17:2838 Rx 1 0x13E s 4 00 00 10 00 
02:02:17:3386 Rx 1 0x227 s 8 17 69 00 00 00 00 89 D0 
02:02:17:3935 Rx 1 0x13E s 8 F2 1D B2 C8 D8 00 06 00 
02:02:17:5078 Rx 1 0x13E s 8 10 00 00 01 62 00 A3 05 
02:02:17:5556 Rx 1 0x3A7 s 8 17 6A 00 00 00 00 89 D0 
02:02:17:6031 Rx 1 0x13E s 6 09 00 00 20 10 00 
02:02:17:6958 Rx 1 0x13E s 8 02 03 92 40 00 D0 00 10 
02:02:17:7563 Rx 1 0x260 s 8 17 69 00 00 00 00 8A D0 
02:02:17:8026 Rx 1 0x13E s 4 00 00 10 00 
02:02:17:8834 Rx 1 0x13E s 7 00 00 FF 4C 00 00 4A 
02:02:17:9415 Rx 1 0x161 s 8 17 6A 00 00 00 00 8A D0 
02:02:17:9910 Rx 1 0x13E s 6 10 00 00 00 01 00 
02:02:18:0358 Rx 1 0x0B6 s 3 00 00 00 
02:02:18:0839 Rx 1 0x13E s 6 10 00 00 00 01 00 
02:02:18:1350 Rx 1 0x210 s 6 09 00 00 20 10 00 
02:02:18:1971 Rx 1 0x13E s 8 03 03 92 40 00 D0 00 10 
02:02:18:2902 Rx 1 0x13E s 4 00 00 10 00 
02:02:18:3630 Rx 1 0x227 s 6 10 00 00 00 01 00 
02:02:18:4160 Rx 1 0x13E s 7 00 00 FF 4C 00 00 4A 
02:02:18:4883 Rx 1 0x13E s 8 10 00 00 01 62 00 A3 05 
02:02:18:5330 Rx 1 0x3A7 s 6 10 00 00 00 01 00 
02:02:18:6081 Rx 1 0x13E s 6 09 00 00 20 10 00 
02:02:18:7092 Rx 1 0x13E s 8 01 03 92 40 00 D0 00 10 
02:02:18:7630 Rx 1 0x260 s 8 17 6C 00 00 00 00 8B D0 
02:02:18:8143 Rx 1 0x13E s 4 00 00 10 00 
02:02:18:8833 Rx 1 0x13E s 7 00 00 FF 4C 00 00 4A 
02:02:18:9450 Rx 1 0x161 s 8 17 6C 00 00 00 00 8C D0 
02:02:19:0087 Rx 1 0x13E s 8 10 00 00 01 62 00 A3 05 
02:02:19:0830 Rx 1 0x13E s 6 09 00 00 20 10 00 
02:02:19:1398 Rx 1 0x361 s 8 17 6C 00 00 00 00 8C D0 
02:02:19:2317 Rx 1 0x13E s 8 02 03 92 40 00 D0 00 10 
02:02:19:2846 Rx 1 0x13E s 4 00 00 10 00 
02:02:19:3529 Rx 1 0x227 s 8 17 6F 00 00 00 00 8D D0 
02:02:19:4005 Rx 1 0x13E s 7 00 00 FF 4C 00 00 4A 
02:02:19:5385 Rx 1 0x13E s 8 10 00 00 01 62 00 A3 05 
02:02:19:6156 Rx 1 0x3A7 s 5 00 00 00 00 00 
02:02:19:6875 Rx 1 0x13E s 8 03 03 92 40 00 D0 00 10 
02:02:19:7842 Rx 1 0x260 s 5 00 00 00 00 00 
02:02:19:8364 Rx 1 0x13E s 4 00 00 10 00 
02:02:19:9067 Rx 1 0x13E s 7 00 00 FF 4C 00 00 4A 
02:02:20:0615 Rx 1 0x13E s 5 00 00 00 00 00 
02:02:20:1166 Rx 1 0x0E6 s 8 10 00 00 01 62 00 A3 05 
02:02:20:2554 Rx 1 0x13E s 5 00 00 00 00 00 
02:02:20:3025 Rx 1 0x0E6 s 8 01 03 92 40 00 D0 00 10 
02:02:20:4598 Rx 1 0x13E s 7 00 00 FF 4C 00 00 4A 
02:02:20:5145 Rx 1 0x161 s 5 80 00 02 00 00 
02:02:20:5835 Rx 1 0x13E s 6 09 00 00 20 10 00 
02:02:20:6299 Rx 1 0x361 s 5 80 00 02 00 00 
02:02:20:7677 Rx 1 0x13E s 8 02 03 92 40 00 D0 00 10 
02:02:20:8254 Rx 1 0x260 s 8 17 6D 00 00 00 00 8F D0 
02:02:20:9723 Rx 1 0x13E s 7 00 00 FF 4C 00 00 4A 
02:02:21:0298 Rx 1 0x168 s 3 00 00 00 
02:02:21:0918 Rx 1 0x13E s 6 09 00 00 20 10 00 
02:02:21:1881 Rx 1 0x13E s 8 03 03 92 40 00 D0 00 10 
02:02:21:2465 Rx 1 0x260 s 5 80 00 02 00 00 
02:02:21:3089 Rx 1 0x13E s 4 00 00 10 00 
02:02:21:3835 Rx 1 0x13E s 7 00 00 FF 4C 00 00 4A 
02:02:21:4360 Rx 1 0x161 s 5 80 00 02 00 00 
02:02:21:4974 Rx 1 0x13E s 8 10 00 00 01 62 00 A3 05 
02:02:21:6646 Rx 1 0x13E s 6 09 00 00 20 10 00 
02:02:21:7175 Rx 1 0x361 s 5 80 00 02 00 00 
02:02:21:7853 Rx 1 0x13E s 4 00 00 10 00 
02:02:21:8449 Rx 1 0x227 s 5 80 00 02 00 00 
02:02:21:9051 Rx 1 0x13E s 7 00 00 FF 4C 00 00 4A 
02:02:21:9846 Rx 1 0x13E s 8 10 00 00 01 62 00 A3 05 
02:02:22:0463 Rx 1 0x3A7 s 5 80 00 02 00 00 
02:02:22:1091 Rx 1 0x13E s 6 09 00 00 20 10 00 
02:02:22:5984 Rx 1 0x13E s 8 02 03 92 40 00 D0 00 10 
02:02:22:6595 Rx 1 0x260 s 5 80 00 02 00 00 
02:02:22:6703 Rx 1 0x8000000 x 8 00 00 00 00 93 D0 B6 00 
02:02:22:7077 Rx 1 0x13E s 8 03 03 92 40 00 D0 00 10 
02:02:22:8162 Rx 1 0x13E s 4 00 00 10 00 
02:02:22:8719 Rx 1 0x227 s 6 10 00 00 00 01 00 
02:02:22:9341 Rx 1 0x13E s 7 00 00 FF 4C 00 00 4A 
02:02:23:0153 Rx 1 0x13E s 8 10 00 00 01 62 00 A3 05 
02:02:23:0837 Rx 1 0x13E s 6 09 00 00 20 10 00 
02:02:23:2241 Rx 1 0x361 s 8 17 6E 00 00 00 00 93 D0 
02:02:23:2790 Rx 1 0x13E s 8 01 03 92 40 00 D0 00 10 
02:02:23:4293 Rx 1 0x13E s 4 00 00 10 00 
02:02:23:4838 Rx 1 0x13E s 7 00 00 FF 4C 00 00 4A 
02:02:23:6342 Rx 1 0x0B6 s 8 00 00 00 40 00 00 00 00 
02:02:23:7028 Rx 1 0x13E s 6 09 00 00 20 10 00 
02:02:23:8385 Rx 1 0x13E s 4 00 04 10 00 
02:02:23:9024 Rx 1 0x227 s 8 17 61 00 00 00 00 95 D0 
02:02:24:0434 Rx 1 0x13E s 8 10 00 00 01 62 00 A3 05 
02:02:24:1071 Rx 1 0x3A7 s 8 17 5E 00 00 00 00 95 D0 
02:02:24:1850 Rx 1 0x13E s 8 03 03 92 40 00 D0 00 10 
02:02:24:2538 Rx 1 0x260 s 8 17 62 00 00 00 00 96 D0 
02:02:24:3086 Rx 1 0x13E s 4 00 04 10 00 
02:02:24:8262 Rx 1 0x13E s 7 00 00 FF 4C 00 00 4A 
02:02:24:8902 Rx 1 0x161 s 8 17 62 00 00 00 00 96 D0 
02:02:24:9017 Rx 1 0x8000000 x 8 33 37 32 35 32 36 B6 02 
02:02:24:9533 Rx 1 0x1BE s 8 00 06 FF FF 7F FF 00 00 
02:02:25:0135 Rx 1 0x13E s 8 10 00 00 01 62 00 A3 05 
02:02:25:0836 Rx 1 0x13E s 5 00 00 00 00 00 
02:02:25:1408 Rx 1 0x0E6 s 6 09 00 00 20 10 00 
02:02:25:2018 Rx 1 0x13E s 5 00 00 00 00 00 
02:02:25:2844 Rx 1 0x13E s 5 00 00 00 00 00 
02:02:25:3701 Rx 1 0x0E6 s 4 00 04 10 00 
02:02:25:4221 Rx 1 0x13E s 7 00 00 FF 4C 00 00 4A 
02:02:25:5804 Rx 1 0x13E s 8 10 00 00 01 62 00 A3 05 
02:02:25:6454 Rx 1 0x17E s 8 21 10 00 00 00 80 A0 01 
02:02:25:7103 Rx 1 0x13E s 3 00 00 00 
02:02:25:7924 Rx 1 0x13E s 3 00 00 00 
02:02:25:8378 Rx 1 0x21F s 4 00 04 10 00 
02:02:25:8917 Rx 1 0x13E s 3 00 00 00 
02:02:25:9534 Rx 1 0x2A1 s 8 5A 17 A8 2E 00 00 00 00 
02:02:26:0173 Rx 1 0x13E s 3 00 00 00 
02:02:26:0864 Rx 1 0x13E s 3 00 00 00 
02:02:26:1501 Rx 1 0x21F s 6 09 00 00 20 10 00 
02:02:26:2077 Rx 1 0x13E s 3 00 00 00 
02:02:26:2840 Rx 1 0x13E s 3 00 00 00 
02:02:26:3505 Rx 1 0x21F s 4 00 04 10 00 
02:02:26:4360 Rx 1 0x13E s 3 00 00 00 
02:02:26:6031 Rx 1 0x13E s 3 00 00 00 
02:02:26:6501 Rx 1 0x1BE s 8 00 06 FF FF 7F FF 00 00 
02:02:26:7026 Rx 1 0x13E s 3 00 00 00 
02:02:26:8031 Rx 1 0x210 s 4 00 04 10 00 
02:02:26:8642 Rx 1 0x227 s 3 00 00 00 
02:02:26:9232 Rx 1 0x13E s 6 10 00 00 00 01 00 
02:02:26:9896 Rx 1 0x13E s 8 10 00 00 01 62 00 A3 05 
02:02:27:1161 Rx 1 0x1BE s 8 00 06 FF FF 7F FF 00 00 
02:02:27:1763 Rx 1 0x13E s 6 09 00 00 20 10 00 
02:02:27:2368 Rx 1 0x13E s 8 03 03 92 40 00 D0 00 10 
02:02:27:3056 Rx 1 0x13E s 4 00 00 10 00 
02:02:27:4233 Rx 1 0x13E s 7 00 00 FF 4C 00 00 4A 
02:02:27:4779 Rx 1 0x161 s 3 00 00 00 
02:02:27:5381 Rx 1 0x13E s 8 10 00 00 01 62 00 A3 05 
02:02:27:6031 Rx 1 0x13E s 6 09 00 00 20 10 00 
02:02:27:6860 Rx 1 0x13E s 8 01 03 92 40 00 D0 00 10 
02:02:27:7456 Rx 1 0x260 s 3 00 00 00 
02:02:27:8074 Rx 1 0x13E s 4 00 00 10 00 
02:02:28:0266 Rx 1 0x13E s 7 00 00 FF 4C 00 00 4A 
02:02:28:1402 Rx 1 0x161 s 3 00 00 00 
02:02:28:2416 Rx 1 0x0B6 s 6 10 00 00 00 01 00 
02:02:28:3045 Rx 1 0x13E s 4 00 00 10 00 
02:02:28:4466 Rx 1 0x13E s 7 00 00 FF 4C 00 00 4A 
02:02:28:5092 Rx 1 0x161 s 3 00 00 00 
02:02:28:6528 Rx 1 0x13E s 6 09 00 00 20 10 00 
02:02:28:7111 Rx 1 0x361 s 3 00 00 00 
02:02:28:7835 Rx 1 0x13E s 4 00 00 10 00 
02:02:28:8401 Rx 1 0x227 s 3 00 00 00 
02:02:28:8927 Rx 1 0x13E s 7 00 00 FF 4C 00 00 4A 
02:02:29:0451 Rx 1 0x13E s 8 10 00 00 01 62 00 A3 05 
02:02:29:1385 Rx 1 0x3A7 s 3 00 00 00 
02:02:29:5628 Rx 1 0x13E s 8 01 03 92 40 00 D0 00 10 
02:02:29:6211 Rx 1 0x13E s 4 00 00 10 00 
02:02:29:6843 Rx 1 0x13E s 8 02 03 92 40 00 D0 00 10 
02:02:29:7468 Rx 1 0x260 s 5 00 00 00 00 00 
02:02:29:8134 Rx 1 0x227 s 5 00 00 00 00 00 
02:02:29:8851 Rx 1 0x210 s 7 00 00 FF 4C 00 00 4A 
02:02:29:9366 Rx 1 0x161 s 5 00 00 00 00 00 
02:02:29:9993 Rx 1 0x13E s 8 10 00 00 01 62 00 A3 05 
02:02:30:0830 Rx 1 0x361 s 6 10 00 00 00 01 00 
02:02:30:1433 Rx 1 0x210 s 5 00 00 00 00 00 
02:02:30:2047 Rx 1 0x13E s 8 03 03 92 40 00 D0 00 10 
02:02:30:2875 Rx 1 0x0E6 s 4 00 00 10 00 
02:02:30:3495 Rx 1 0x227 s 6 10 00 00 00 01 00 
02:02:30:4093 Rx 1 0x0E6 s 7 00 00 FF 4C 00 00 4A 
02:02:30:4890 Rx 1 0x13E s 8 10 00 00 01 62 00 A3 05 
02:02:30:5421 Rx 1 0x3A7 s 8 17 6E 00 00 00 00 A2 D0 
02:02:30:5889 Rx 1 0x361 s 8 17 70 00 00 00 00 A2 D0 
02:02:30:6455 Rx 1 0x1A8 s 8 0D 00 00 00 00 00 00 00 
02:02:30:6954 Rx 1 0x13E s 8 01 03 92 40 00 D0 00 10 
02:02:30:7957 Rx 1 0x227 s 8 17 6E 00 00 00 00 A2 D0 
02:02:30:8668 Rx 1 0x0B6 s 5 80 00 02 00 00 
02:02:30:9233 Rx 1 0x161 s 8 17 70 00 00 00 00 A2 D0 
02:02:30:9895 Rx 1 0x3A7 s 8 17 71 00 00 00 00 A2 D0 
02:02:31:0478 Rx 1 0x217 s 8 00 06 FF FF 7F FF 00 00 
02:02:31:1254 Rx 1 0x361 s 8 17 71 00 00 00 00 A3 D0 
02:02:31:1931 Rx 1 0x260 s 8 17 6F 00 00 00 00 A3 D0 
02:02:31:2505 Rx 1 0x1BE s 8 F2 80 00 00 00 00 FF FF 
02:02:31:3196 Rx 1 0x227 s 8 17 6F 00 00 00 00 A3 D0 
02:02:31:3832 Rx 1 0x161 s 8 17 70 00 00 00 00 A3 D0 
02:02:31:4377 Rx 1 0x0B6 s 5 80 00 02 00 00 
02:02:31:5009 Rx 1 0x3A7 s 8 17 6E 00 00 00 00 A3 D0 
02:02:31:5829 Rx 1 0x361 s 8 17 6D 00 00 00 00 A4 D0 
02:02:31:6461 Rx 1 0x0B6 s 5 80 00 02 00 00 
02:02:31:7058 Rx 1 0x260 s 8 17 6E 00 00 00 00 A4 D0 
02:02:31:8258 Rx 1 0x227 s 8 17 6E 00 00 00 00 A4 D0 
02:02:31:8912 Rx 1 0x0B6 s 5 80 00 02 00 00 
02:02:31:9543 Rx 1 0x13E s 8 10 00 00 01 62 00 A3 05 
02:02:32:0949 Rx 1 0x3A7 s 8 17 6D 00 00 00 00 A4 D0 
02:02:32:1606 Rx 1 0x361 s 8 17 6D 00 00 00 00 A4 D0 
02:02:32:2211 Rx 1 0x260 s 8 17 6E 00 00 00 00 A5 D0 
02:02:32:2895 Rx 1 0x227 s 8 17 70 00 00 00 00 A5 D0 
02:02:32:3460 Rx 1 0x17E s 3 00 00 00 
02:02:32:4083 Rx 1 0x161 s 8 17 6F 00 00 00 00 A5 D0 
02:02:32:4903 Rx 1 0x3A7 s 8 17 6E 00 00 00 00 A5 D0 
02:02:32:6123 Rx 1 0x0B6 s 8 00 00 00 40 00 00 00 00 
02:02:32:6776 Rx 1 0x361 s 8 17 6E 00 00 00 00 A5 D0 
02:02:32:7370 Rx 1 0x260 s 8 17 6F 00 00 00 00 A6 D0 
02:02:32:8089 Rx 1 0x227 s 8 17 6E 00 00 00 00 A6 D0 
02:02:32:8934 Rx 1 0x161 s 8 17 6D 00 00 00 00 A6 D0 
02:02:33:0373 Rx 1 0x0B6 s 8 00 00 00 40 00 00 00 00 
02:02:33:1322 Rx 1 0x3A7 s 8 17 6E 00 00 00 00 A6 D0 
02:02:33:1917 Rx 1 0x260 s 8 17 6E 00 00 00 00 A7 D0 
02:02:33:3616 Rx 1 0x227 s 8 17 6F 00 00 00 00 A7 D0 
02:02:33:4262 Rx 1 0x0B6 s 3 56 46 37 
02:02:33:4919 Rx 1 0x3A7 s 8 17 6F 00 00 00 00 A7 D0 
02:02:33:5550 Rx 1 0x0B6 s 8 00 00 00 40 00 00 00 00 
02:02:33:6127 Rx 1 0x361 s 8 17 6E 00 00 00 00 A7 D0 
02:02:33:7713 Rx 1 0x260 s 8 17 6C 00 00 00 00 A7 D0 
02:02:33:8437 Rx 1 0x0B6 s 8 00 00 00 40 00 00 00 00 
02:02:33:9845 Rx 1 0x161 s 8 17 6D 00 00 00 00 A8 D0 
02:02:34:0403 Rx 1 0x3A7 s 8 17 6B 00 00 00 00 A8 D0 
02:02:34:0928 Rx 1 0x361 s 8 17 6B 00 00 00 00 A8 D0 
02:02:34:2838 Rx 1 0x260 s 8 17 6B 00 00 00 00 A8 D0 
02:02:34:3375 Rx 1 0x0B6 s 5 80 00 02 00 00 
02:02:34:3985 Rx 1 0x210 s 8 17 69 00 00 00 00 A9 D0 
02:02:34:5712 Rx 1 0x3A7 s 6 10 00 00 00 41 00 
02:02:34:6318 Rx 1 0x210 s 8 17 68 00 00 00 00 A9 D0 
02:02:34:7006 Rx 1 0x260 s 6 10 00 00 00 41 00 
02:02:34:7852 Rx 1 0x227 s 6 10 00 00 00 41 00 
02:02:34:8615 Rx 1 0x210 s 8 17 68 00 00 00 00 A9 D0 
02:02:34:9131 Rx 1 0x161 s 5 00 00 00 00 00 
02:02:34:9837 Rx 1 0x3A7 s 5 00 00 00 00 00 
02:02:35:1125 Rx 1 0x0E6 s 8 17 69 00 00 00 00 AA D0 
02:02:35:1649 Rx 1 0x361 s 5 00 00 00 00 00 
02:02:35:2277 Rx 1 0x260 s 5 00 00 00 00 00 
02:02:35:2926 Rx 1 0x227 s 5 00 00 00 00 00 
02:02:35:3597 Rx 1 0x317 s 8 00 00 00 00 00 00 00 00 
02:02:35:4151 Rx 1 0x161 s 8 17 6A 00 00 00 00 AB D0 
02:02:35:4838 Rx 1 0x3A7 s 8 17 6A 00 00 00 00 AB D0 
02:02:35:5465 Rx 1 0x0B6 s 8 00 00 00 40 00 00 00 00 
02:02:35:6024 Rx 1 0x361 s 8 17 6A 00 00 00 00 AB D0 
02:02:35:7174 Rx 1 0x260 s 8 17 6A 00 00 00 00 AB D0 
02:02:35:7746 Rx 1 0x0B6 s 8 00 00 00 40 00 00 00 00 
02:02:35:8363 Rx 1 0x227 s 8 17 6A 00 00 00 00 AB D0 
02:02:35:9038 Rx 1 0x161 s 8 17 6A 00 00 00 00 AB D0 
02:02:36:0242 Rx 1 0x3A7 s 8 17 6A 00 00 00 00 AC D0 
02:02:36:0873 Rx 1 0x0B6 s 5 80 00 02 00 00 
02:02:36:1572 Rx 1 0x0B6 s 8 20 00 03 37 D0 00 00 00 
02:02:36:2115 Rx 1 0x260 s 8 17 6D 00 00 00 00 AC D0 
02:02:36:2832 Rx 1 0x227 s 8 17 6C 00 00 00 00 AC D0 
02:02:36:3398 Rx 1 0x0B6 s 3 56 46 37 
02:02:36:3974 Rx 1 0x161 s 8 17 6B 00 00 00 00 AC D0 
02:02:36:5368 Rx 1 0x3A7 s 8 17 6C 00 00 00 00 AD D0 
02:02:36:6388 Rx 1 0x0B6 s 8 00 00 00 40 00 00 00 00 
02:02:36:6957 Rx 1 0x260 s 8 17 6D 00 00 00 00 AD D0 
02:02:36:7947 Rx 1 0x227 s 8 17 6D 00 00 00 00 AD D0 
02:02:36:9457 Rx 1 0x0B6 s 8 39 37 33 37 32 35 32 36 
02:02:37:0483 Rx 1 0x161 s 8 17 6D 00 00 00 00 AD D0 
02:02:37:1064 Rx 1 0x361 s 8 17 6D 00 00 00 00 AE D0 
02:02:37:1827 Rx 1 0x260 s 8 17 6D 00 00 00 00 AE D0 
02:02:37:2399 Rx 1 0x0B6 s 5 80 00 02 00 00 
02:02:37:3554 Rx 1 0x227 s 8 17 6C 00 00 00 00 AE D0 
02:02:37:4131 Rx 1 0x161 s 8 17 6D 00 00 00 00 AE D0 
02:02:37:4878 Rx 1 0x3A7 s 8 17 6E 00 00 00 00 AE D0 
02:02:37:5461 Rx 1 0x0B6 s 8 00 00 00 40 00 00 00 00 
02:02:37:6503 Rx 1 0x361 s 8 17 6C 00 00 00 00 AF D0 
02:02:37:7113 Rx 1 0x260 s 8 17 6D 00 00 00 00 AF D0 
02:02:37:8684 Rx 1 0x227 s 8 17 6E 00 00 00 00 AF D0 
02:02:37:9303 Rx 1 0x0B6 s 8 39 37 33 37 32 35 32 36 
02:02:37:9935 Rx 1 0x3A7 s 8 17 6D 00 00 00 00 AF D0 
02:02:38:1689 Rx 1 0x361 s 8 17 6D 00 00 00 00 B0 D0 
02:02:38:2308 Rx 1 0x0B6 s 8 00 00 00 40 00 00 00 00 
02:02:38:2934 Rx 1 0x227 s 8 17 6D 00 00 00 00 B0 D0 
02:02:38:4819 Rx 1 0x161 s 8 17 6D 00 00 00 00 B0 D0 
02:02:38:5454 Rx 1 0x0B6 s 5 80 00 02 00 00 
02:02:38:6064 Rx 1 0x361 s 8 17 6D 00 00 00 00 B0 D0 
02:02:38:6835 Rx 1 0x260 s 8 17 6D 00 00 00 00 B1 D0 
02:02:38:7464 Rx 1 0x0B6 s 8 00 00 00 40 00 00 00 00 
02:02:38:8082 Rx 1 0x210 s 8 17 6E 00 00 00 00 B1 D0 
02:02:38:8863 Rx 1 0x161 s 6 10 00 00 00 41 00 
02:02:38:9492 Rx 1 0x210 s 8 17 6D 00 00 00 00 B1 D0 
02:02:39:0116 Rx 1 0x3A7 s 6 10 00 00 00 41 00 
02:02:39:0839 Rx 1 0x361 s 6 10 00 00 00 41 00 
02:02:39:1353 Rx 1 0x210 s 8 17 6F 00 00 00 00 B1 D0 
02:02:39:1900 Rx 1 0x260 s 8 17 6F 00 00 00 00 B2 D0 
02:02:39:2545 Rx 1 0x036 s 3 00 00 00 
02:02:39:2995 Rx 1 0x227 s 8 17 6F 00 00 00 00 B2 D0 
02:02:39:4083 Rx 1 0x161 s 8 17 6F 00 00 00 00 B2 D0 
02:02:39:4543 Rx 1 0x0B6 s 6 10 00 00 00 41 00 
02:02:39:5023 Rx 1 0x3A7 s 8 17 70 00 00 00 00 B2 D0 
02:02:39:6082 Rx 1 0x361 s 8 17 6F 00 00 00 00 B2 D0 
02:02:39:7112 Rx 1 0x0B6 s 6 10 00 00 00 41 00 
02:02:39:8135 Rx 1 0x260 s 8 17 70 00 00 00 00 B2 D0 
02:02:39:8648 Rx 1 0x227 s 8 17 71 00 00 00 00 B3 D0 
02:02:39:9216 Rx 1 0x161 s 8 17 70 00 00 00 00 B3 D0 
02:02:39:9864 Rx 1 0x3A7 s 5 00 00 00 00 00 
02:02:40:0611 Rx 1 0x018 s 8 00 00 00 40 00 00 00 00 
02:02:40:1248 Rx 1 0x361 s 5 00 00 00 00 00 
02:02:40:2227 Rx 1 0x260 s 5 00 00 00 00 00 
02:02:40:2835 Rx 1 0x217 s 8 17 6E 00 00 00 00 B4 D0 
02:02:40:3439 Rx 1 0x227 s 5 00 00 00 00 00 
02:02:40:3984 Rx 1 0x161 s 5 00 00 00 00 00 
02:02:40:5296 Rx 1 0x3A7 s 8 17 6F 00 00 00 00 B4 D0 
02:02:40:5996 Rx 1 0x0B6 s 8 00 00 00 40 00 00 00 00 
02:02:40:7349 Rx 1 0x260 s 8 17 70 00 00 00 00 B4 D0 
02:02:40:7905 Rx 1 0x0B6 s 8 00 00 00 40 00 00 00 00 
02:02:40:8439 Rx 1 0x14C s 7 00 FF FF 02 94 FF FF 
02:02:40:9023 Rx 1 0x161 s 8 17 6F 00 00 00 00 B5 D0 
02:02:41:0422 Rx 1 0x3A7 s 8 17 71 00 00 00 00 B5 D0 
02:02:41:0971 Rx 1 0x0B6 s 5 80 00 02 00 00 
02:02:41:2494 Rx 1 0x260 s 8 17 6D 00 00 00 00 B5 D0 
02:02:41:3022 Rx 1 0x0B6 s 5 80 00 02 00 00 
02:02:41:4520 Rx 1 0x161 s 8 17 69 00 00 00 00 B6 D0 
02:02:41:5071 Rx 1 0x0B6 s 5 80 00 02 00 00 
02:02:41:5834 Rx 1 0x361 s 8 17 66 00 00 00 00 B6 D0 
02:02:41:6516 Rx 1 0x0B6 s 5 80 00 02 00 00 
02:02:41:7113 Rx 1 0x260 s 8 17 66 00 00 00 00 B6 D0 
02:02:41:7860 Rx 1 0x227 s 8 17 67 00 00 00 00 B6 D0 
02:02:41:9161 Rx 1 0x0B6 s 8 39 37 33 37 32 35 32 36 
02:02:41:9767 Rx 1 0x161 s 8 17 67 00 00 00 00 B6 D0 
02:02:42:0447 Rx 1 0x3A7 s 8 17 68 00 00 00 00 B7 D0 
02:02:42:1001 Rx 1 0x361 s 8 17 68 00 00 00 00 B7 D0 
02:02:42:1834 Rx 1 0x260 s 8 17 69 00 00 00 00 B7 D0 
02:02:42:2499 Rx 1 0x0B6 s 5 80 00 02 00 00 
02:02:42:3737 Rx 1 0x227 s 8 17 6A 00 00 00 00 B7 D0 
02:02:42:4756 Rx 1 0x161 s 8 17 6A 00 00 00 00 B7 D0 
02:02:42:5783 Rx 1 0x3A7 s 8 17 6B 00 00 00 00 B8 D0 
02:02:42:6403 Rx 1 0x361 s 8 17 6A 00 00 00 00 B8 D0 
02:02:42:7828 Rx 1 0x260 s 8 17 6A 00 00 00 00 B8 D0 
02:02:42:8414 Rx 1 0x227 s 8 17 6B 00 00 00 00 B8 D0 
02:02:42:8979 Rx 1 0x161 s 8 17 6A 00 00 00 00 B8 D0 
02:02:43:0918 Rx 1 0x3A7 s 8 17 6A 00 00 00 00 B9 D0 
02:02:43:1480 Rx 1 0x0B6 s 5 80 00 02 00 00 
02:02:43:2087 Rx 1 0x210 s 8 17 6A 00 00 00 00 B9 D0 
02:02:43:2845 Rx 1 0x210 s 8 17 6C 00 00 00 00 B9 D0 
02:02:43:3507 Rx 1 0x0B6 s 3 56 46 37 
02:02:43:4109 Rx 1 0x161 s 6 10 00 00 00 41 00 
02:02:43:4835 Rx 1 0x3A7 s 6 10 00 00 00 41 00 
02:02:43:5360 Rx 1 0x210 s 8 17 6B 00 00 00 00 B9 D0 
02:02:43:6068 Rx 1 0x361 s 8 17 6C 00 00 00 00 BA D0 
02:02:43:8065 Rx 1 0x260 s 8 17 6B 00 00 00 00 BA D0 
02:02:43:8626 Rx 1 0x0B6 s 6 10 00 00 00 41 00 
02:02:43:9384 Rx 1 0x161 s 8 17 6C 00 00 00 00 BA D0 
02:02:43:9891 Rx 1 0x3A7 s 8 17 6B 00 00 00 00 BA D0 
02:02:44:0531 Rx 1 0x167 s 8 00 00 00 00 00 19 A1 69 
02:02:44:1082 Rx 1 0x361 s 8 17 6B 00 00 00 00 BB D0 
02:02:44:2186 Rx 1 0x260 s 8 17 6B 00 00 00 00 BB D0 
02:02:44:2718 Rx 1 0x0B6 s 5 80 00 02 00 00 
02:02:44:3346 Rx 1 0x227 s 8 17 6B 00 00 00 00 BB D0 
02:02:44:3975 Rx 1 0x161 s 8 17 6C 00 00 00 00 BB D0 
02:02:44:5236 Rx 1 0x3A7 s 8 17 6D 00 00 00 00 BB D0 
02:02:44:5786 Rx 1 0x0B6 s 8 00 00 00 40 00 00 00 00 
02:02:44:6310 Rx 1 0x361 s 8 17 6D 00 00 00 00 BB D0 
02:02:44:7136 Rx 1 0x260 s 8 17 6B 00 00 00 00 BC D0 
02:02:44:7988 Rx 1 0x227 s 8 17 6A 00 00 00 00 BC D0 
02:02:44:9332 Rx 1 0x161 s 8 17 6A 00 00 00 00 BC D0 
02:02:44:9910 Rx 1 0x0B6 s 5 00 00 00 00 00 
02:02:45:0471 Rx 1 0x13E s 6 09 00 00 20 10 00 
02:02:45:1381 Rx 1 0x361 s 5 00 00 00 00 00 
02:02:45:1935 Rx 1 0x260 s 5 00 00 00 00 00 
02:02:45:3426 Rx 1 0x227 s 5 00 00 00 00 00 
02:02:45:4068 Rx 1 0x0E6 s 8 17 67 00 00 00 00 BD D0 
02:02:45:5371 Rx 1 0x3A7 s 5 00 00 00 00 00 
02:02:45:6108 Rx 1 0x0E6 s 8 17 66 00 00 00 00 BD D0 
02:02:45:6830 Rx 1 0x260 s 8 17 67 00 00 00 00 BD D0 
02:02:45:8548 Rx 1 0x0B6 s 8 00 00 00 40 00 00 00 00 
02:02:45:9113 Rx 1 0x227 s 8 17 68 00 00 00 00 BE D0 
02:02:45:9859 Rx 1 0x3A7 s 8 17 69 00 00 00 00 BE D0 
02:02:46:0373 Rx 1 0x0B6 s 8 00 00 00 40 00 00 00 00 
02:02:46:1004 Rx 1 0x361 s 8 17 6A 00 00 00 00 BE D0 
02:02:46:5469 Rx 1 0x260 s 8 17 69 00 00 00 00 BE D0 
02:02:46:5956 Rx 1 0x0B6 s 8 00 00 00 40 00 00 00 00 
02:02:46:6063 Rx 1 0x5000000 x 0 
02:02:46:6606 Rx 1 0x13E s 8 03 03 92 40 00 D0 00 10 
02:02:46:7236 Rx 1 0x260 s 8 17 6A 00 00 00 00 BF D0 
02:02:46:7858 Rx 1 0x227 s 8 17 6A 00 00 00 00 C0 D0 
02:02:46:8538 Rx 1 0x15B s 8 00 00 00 2F 21 00 00 A0 
02:02:46:9118 Rx 1 0x161 s 8 17 6A 00 00 00 00 C0 D0 
02:02:46:9865 Rx 1 0x3A7 s 8 17 6B 00 00 00 00 C0 D0 
02:02:47:0383 Rx 1 0x217 s 8 17 6B 00 00 00 00 C0 D0 
02:02:47:0920 Rx 1 0x361 s 8 17 6B 00 00 00 00 C0 D0 
02:02:47:2882 Rx 1 0x260 s 8 17 6B 00 00 00 00 C0 D0 
02:02:47:3485 Rx 1 0x0B6 s 8 00 00 00 40 00 00 00 00 
02:02:47:4145 Rx 1 0x161 s 8 17 6B 00 00 00 00 C1 D0 
02:02:47:4829 Rx 1 0x3A7 s 8 17 6C 00 00 00 00 C1 D0 
02:02:47:5364 Rx 1 0x0B6 s 8 00 00 00 40 00 00 00 00 
02:02:47:5905 Rx 1 0x210 s 8 17 6C 00 00 00 00 C1 D0 
02:02:47:6444 Rx 1 0x21F s 5 80 00 00 00 80 
02:02:47:7072 Rx 1 0x210 s 8 17 6C 00 00 00 00 C1 D0 
02:02:47:7829 Rx 1 0x227 s 6 10 00 00 00 41 00 
02:02:47:8342 Rx 1 0x210 s 8 17 6B 00 00 00 00 C1 D0 
02:02:47:8978 Rx 1 0x161 s 6 10 00 00 00 41 00 
02:02:48:0048 Rx 1 0x3A7 s 8 17 6B 00 00 00 00 C2 D0 
02:02:48:0604 Rx 1 0x0B6 s 6 10 00 00 00 41 00 
02:02:48:1148 Rx 1 0x361 s 8 17 6C 00 00 00 00 C2 D0 
02:02:48:1850 Rx 1 0x260 s 8 17 6D 00 00 00 00 C2 D0 
02:02:48:5978 Rx 1 0x0B6 s 6 10 00 00 00 41 00 
02:02:48:6663 Rx 1 0x227 s 8 17 6E 00 00 00 00 C2 D0 
02:02:48:7238 Rx 1 0x260 s 8 17 6F 00 00 00 00 C3 D0 
02:02:48:7881 Rx 1 0x227 s 8 17 6F 00 00 00 00 C3 D0 
02:02:48:8716 Rx 1 0x217 s 8 17 6F 00 00 00 00 C3 D0 
02:02:48:9233 Rx 1 0x161 s 8 17 6E 00 00 00 00 C3 D0 
02:02:48:9893 Rx 1 0x3A7 s 8 17 6E 00 00 00 00 C4 D0 
02:02:49:0577 Rx 1 0x167 s 5 80 00 00 00 80 
02:02:49:1248 Rx 1 0x361 s 8 17 6E 00 00 00 00 C4 D0 
02:02:49:1911 Rx 1 0x260 s 8 17 6E 00 00 00 00 C4 D0 
02:02:49:2549 Rx 1 0x13E s 4 00 00 10 00 
02:02:49:3162 Rx 1 0x227 s 8 17 6F 00 00 00 00 C4 D0 
02:02:49:4389 Rx 1 0x161 s 8 17 70 00 00 00 00 C4 D0 
02:02:49:5410 Rx 1 0x0B6 s 8 00 00 00 40 00 00 00 00 
02:02:49:5961 Rx 1 0x361 s 8 17 6F 00 00 00 00 C5 D0 
02:02:50:0337 Rx 1 0x260 s 8 17 6F 00 00 00 00 C5 D0 
02:02:50:0930 Rx 1 0x0B6 s 5 00 00 00 00 00 
02:02:50:1042 Rx 1 0x8000000 x 8 00 00 00 80 A0 01 28 01 
02:02:50:5505 Rx 1 0x260 s 5 00 00 00 00 00 
02:02:50:6089 Rx 1 0x0E6 s 8 17 6D 00 00 00 00 C6 D0 
02:02:50:6202 Rx 1 0x8000000 s 0 
02:02:50:6842 Rx 1 0x260 s 8 17 6D 00 00 00 00 C7 D0 
02:02:50:7704 Rx 1 0x0B6 s 8 00 00 00 40 00 00 00 00 
02:02:50:8724 Rx 1 0x227 s 8 17 6D 00 00 00 00 C7 D0 
02:02:50:9281 Rx 1 0x161 s 8 17 6D 00 00 00 00 C7 D0 
02:02:50:9826 Rx 1 0x3A7 s 8 17 6E 00 00 00 00 C7 D0 
02:02:51:0554 Rx 1 0x0B6 s 8 00 00 00 40 00 00 00 00 
02:02:51:0995 Rx 1 0x361 s 8 17 6E 00 00 00 00 C7 D0 
02:02:51:1828 Rx 1 0x260 s 8 17 6E 00 00 00 00 C8 D0 
02:02:51:2527 Rx 1 0x0B6 s 8 00 00 00 40 00 00 00 00 
02:02:51:5903 Rx 1 0x227 s 8 17 6E 00 00 00 00 C8 D0 
02:02:51:6450 Rx 1 0x21F s 8 17 70 00 00 00 00 C8 D0 
02:02:51:7210 Rx 1 0x21F s 8 17 6F 00 00 00 00 C9 D0 
02:02:51:7851 Rx 1 0x21F s 8 17 6F 00 00 00 00 C9 D0 
02:02:51:8414 Rx 1 0x0B6 s 8 39 37 33 37 32 35 32 36 
02:02:51:9046 Rx 1 0x21F s 8 17 70 00 00 00 00 C9 D0 
02:02:51:9933 Rx 1 0x21F s 8 17 70 00 00 00 00 C9 D0 
02:02:52:0537 Rx 1 0x0B6 s 8 00 00 00 40 00 00 00 00 
02:02:52:1136 Rx 1 0x21F s 8 17 6F 00 00 00 00 C9 D0 
02:02:52:6224 Rx 1 0x210 s 8 17 70 00 00 00 00 C9 D0 
02:02:52:6867 Rx 1 0x0B6 s 8 00 00 00 40 00 00 00 00 
02:02:52:6987 Rx 1 0x5000000 x 0 
02:02:52:7494 Rx 1 0x128 s 1 00 
02:02:52:8149 Rx 1 0x227 s 3 00 00 00 
02:02:52:8836 Rx 1 0x161 s 3 00 00 00 
02:02:52:9343 Rx 1 0x21F s 8 17 6E 00 00 00 00 CB D0 
02:02:52:9999 Rx 1 0x3A7 s 3 00 00 00 
02:02:53:0864 Rx 1 0x361 s 3 00 00 00 
02:02:53:1301 Rx 1 0x21F s 8 17 6F 00 00 00 00 CB D0 
02:02:53:1837 Rx 1 0x260 s 3 00 00 00 
02:02:53:2482 Rx 1 0x0B6 s 8 00 00 00 40 00 00 00 00 
02:02:53:3104 Rx 1 0x227 s 3 00 00 00 
02:02:53:3907 Rx 1 0x161 s 3 00 00 00 
02:02:53:4591 Rx 1 0x21F s 8 17 70 00 00 00 00 CC D0 
02:02:53:5129 Rx 1 0x3A7 s 3 00 00 00 
02:02:53:5832 Rx 1 0x361 s 3 00 00 00 
02:02:53:6327 Rx 1 0x21F s 8 17 6F 00 00 00 00 CC D0 
02:02:53:6863 Rx 1 0x260 s 3 00 00 00 
02:02:53:7488 Rx 1 0x0E6 s 8 00 00 00 0F 21 00 00 A0 
02:02:53:8117 Rx 1 0x227 s 3 00 00 00 
02:02:53:8842 Rx 1 0x161 s 8 17 6D 00 00 00 00 CC D0 
02:02:53:9389 Rx 1 0x0B6 s 3 00 00 00 
02:02:54:0015 Rx 1 0x3A7 s 8 17 6D 00 00 00 00 CD D0 
02:02:54:0845 Rx 1 0x361 s 8 17 6C 00 00 00 00 CD D0 
02:02:54:1352 Rx 1 0x0B6 s 3 00 00 00 
02:02:54:2000 Rx 1 0x260 s 8 17 6C 00 00 00 00 CD D0 
02:02:54:3539 Rx 1 0x227 s 8 17 6A 00 00 00 00 CD D0 
02:02:54:4091 Rx 1 0x0B6 s 3 00 00 00 
02:02:54:4837 Rx 1 0x3A7 s 8 17 68 00 00 00 00 CE D0 
02:02:54:5509 Rx 1 0x0B6 s 3 00 00 00 
02:02:54:6078 Rx 1 0x361 s 8 17 68 00 00 00 00 CE D0 
02:02:54:7635 Rx 1 0x260 s 8 17 68 00 00 00 00 CE D0 
02:02:54:8270 Rx 1 0x0B6 s 3 00 00 00 
02:02:54:8902 Rx 1 0x161 s 8 17 68 00 00 00 00 CE D0 
02:02:54:9580 Rx 1 0x13E s 8 10 00 00 01 62 00 A3 05 
02:02:55:0142 Rx 1 0x3A7 s 8 17 68 00 00 00 00 CF D0 
02:02:55:0920 Rx 1 0x361 s 8 17 6A 00 00 00 00 CF D0 
02:02:55:1575 Rx 1 0x0B6 s 5 00 00 00 00 00 
02:02:55:2175 Rx 1 0x260 s 8 17 6A 00 00 00 00 CF D0 
02:02:55:2827 Rx 1 0x227 s 5 00 00 00 00 00 
02:02:55:3454 Rx 1 0x0E6 s 3 56 46 37 
02:02:55:4092 Rx 1 0x161 s 5 00 00 00 00 00 
02:02:55:5829 Rx 1 0x3A7 s 5 00 00 00 00 00 
02:02:55:6365 Rx 1 0x0E6 s 8 17 6A 00 00 00 00 CF D0 
02:02:55:7001 Rx 1 0x0E6 s 8 17 6A 00 00 00 00 D0 D0 
02:02:55:9364 Rx 1 0x0E6 s 8 17 6B 00 00 00 00 D0 D0 
02:02:55:9987 Rx 1 0x0B6 s 8 39 37 33 37 32 35 32 36 
02:02:56:0887 Rx 1 0x361 s 8 17 6C 00 00 00 00 D0 D0 
02:02:56:1391 Rx 1 0x0B6 s 3 00 00 00 
02:02:56:2022 Rx 1 0x260 s 8 17 6C 00 00 00 00 D1 D0 
02:02:56:2826 Rx 1 0x227 s 8 17 6C 00 00 00 00 D1 D0 
02:02:56:3416 Rx 1 0x0B6 s 3 56 46 37 
02:02:56:4092 Rx 1 0x210 s 8 17 6C 00 00 00 00 D1 D0 
02:02:56:5115 Rx 1 0x210 s 8 17 6D 00 00 00 00 D1 D0 
02:02:56:5618 Rx 1 0x0B6 s 8 00 00 00 40 00 00 00 00 
02:02:56:6238 Rx 1 0x210 s 8 17 6E 00 00 00 00 D1 D0 
02:02:56:6868 Rx 1 0x260 s 6 10 00 00 00 41 00 
02:02:56:7510 Rx 1 0x036 s 8 80 00 2E 02 84 00 00 00 
02:02:56:8167 Rx 1 0x227 s 8 17 6E 00 00 00 00 D2 D0 
02:02:56:8840 Rx 1 0x161 s 8 17 6D 00 00 00 00 D2 D0 
02:02:56:9414 Rx 1 0x0B6 s 6 10 00 00 00 41 00 
02:02:56:9935 Rx 1 0x3A7 s 8 17 6E 00 00 00 00 D2 D0 
02:02:57:0601 Rx 1 0x13E s 6 09 00 00 20 10 00 
02:02:57:1228 Rx 1 0x361 s 8 17 6E 00 00 00 00 D2 D0 
02:02:57:1878 Rx 1 0x260 s 8 17 6E 00 00 00 00 D3 D0 
02:02:57:2504 Rx 1 0x018 s 8 F2 80 00 00 00 00 FF FF 
02:02:57:3109 Rx 1 0x227 s 8 17 6E 00 00 00 00 D3 D0 
02:02:57:3838 Rx 1 0x161 s 8 17 6E 00 00 00 00 D3 D0 
02:02:57:4360 Rx 1 0x0B6 s 8 00 00 00 40 00 00 00 00 
02:02:57:4978 Rx 1 0x3A7 s 8 17 6F 00 00 00 00 D3 D0 
02:02:57:5829 Rx 1 0x361 s 8 17 70 00 00 00 00 D3 D0 
02:02:57:6385 Rx 1 0x0B6 s 8 00 00 00 40 00 00 00 00 
02:02:57:7077 Rx 1 0x260 s 8 17 6F 00 00 00 00 D3 D0 
02:02:57:8357 Rx 1 0x227 s 8 17 6F 00 00 00 00 D4 D0 
02:02:57:8911 Rx 1 0x0B6 s 8 39 37 33 37 32 35 32 36 
02:02:58:0404 Rx 1 0x3A7 s 8 17 6D 00 00 00 00 D4 D0 
02:02:58:1087 Rx 1 0x0B6 s 8 00 00 00 40 00 00 00 00 
02:02:58:1830 Rx 1 0x260 s 8 17 6E 00 00 00 00 D4 D0 
02:02:58:2527 Rx 1 0x0B6 s 8 00 00 00 40 00 00 00 00 
02:02:58:3133 Rx 1 0x227 s 8 17 6E 00 00 00 00 D4 D0 
02:02:58:5364 Rx 1 0x161 s 8 17 6D 00 00 00 00 D5 D0 
02:02:58:5946 Rx 1 0x0B6 s 8 00 00 00 40 00 00 00 00 
02:02:58:9641 Rx 1 0x260 s 8 17 6D 00 00 00 00 D5 D0 
02:02:59:0063 Rx 1 0x0B6 s 8 00 00 00 40 00 00 00 00 
02:02:59:1667 Rx 1 0x361 s 8 17 6D 00 00 00 00 D6 D0 
02:02:59:2446 Rx 1 0x0B6 s 8 00 00 00 40 00 00 00 00 
02:02:59:2941 Rx 1 0x227 s 8 17 6E 00 00 00 00 D6 D0 
02:02:59:4733 Rx 1 0x161 s 8 17 6C 00 00 00 00 D6 D0 
02:02:59:5297 Rx 1 0x0B6 s 8 00 00 00 40 00 00 00 00 
02:02:59:5932 Rx 1 0x361 s 8 17 6A 00 00 00 00 D7 D0 
02:02:59:7800 Rx 1 0x260 s 8 17 6A 00 00 00 00 D7 D0 
02:02:59:8480 Rx 1 0x0B6 s 8 00 00 00 40 00 00 00 00 
02:02:59:9085 Rx 1 0x161 s 8 17 6A 00 00 00 00 D7 D0 
02:02:59:9825 Rx 1 0x3A7 s 8 17 6B 00 00 00 00 D8 D0 
02:03:00:0340 Rx 1 0x0B6 s 5 00 00 00 00 00 
02:03:00:0973 Rx 1 0x361 s 8 17 6A 00 00 00 00 D8 D0 
02:03:00:2939 Rx 1 0x260 s 8 17 6B 00 00 00 00 D8 D0 
02:03:00:3496 Rx 1 0x0B6 s 5 00 00 00 00 00 
02:03:00:4102 Rx 1 0x161 s 8 17 6B 00 00 00 00 D8 D0 
02:03:00:4833 Rx 1 0x3A7 s 5 00 00 00 00 00 
02:03:00:5495 Rx 1 0x0E6 s 8 17 6B 00 00 00 00 D8 D0 
02:03:00:6152 Rx 1 0x361 s 5 00 00 00 00 00 
02:03:00:6839 Rx 1 0x0E6 s 8 17 6A 00 00 00 00 D9 D0 
02:03:00:7365 Rx 1 0x0B6 s 8 00 00 00 40 00 00 00 00 
02:03:00:8106 Rx 1 0x0E6 s 8 17 69 00 00 00 00 D9 D0 
02:03:00:9067 Rx 1 0x0E6 s 8 17 68 00 00 00 00 D9 D0 
02:03:00:9756 Rx 1 0x0B6 s 8 00 00 00 40 00 00 00 00 
02:03:01:0343 Rx 1 0x210 s 8 17 6A 00 00 00 00 D9 D0 
02:03:01:1023 Rx 1 0x361 s 6 10 00 00 00 41 00 
02:03:01:2153 Rx 1 0x260 s 8 17 6C 00 00 00 00 DA D0 
02:03:01:2691 Rx 1 0x0B6 s 6 10 00 00 00 41 00 
02:03:01:3320 Rx 1 0x227 s 8 17 6C 00 00 00 00 DA D0 
02:03:01:3919 Rx 1 0x161 s 8 17 6C 00 00 00 00 DA D0 
02:03:02:0167 Rx 1 0x3A7 s 8 17 6D 00 00 00 00 DA D0 
02:03:02:0284 Rx 1 0x0B6 s 6 10 00 00 00 41 00 
02:03:02:0394 Rx 1 0x8000000 x 8 00 00 00 80 A0 01 28 01 
02:03:02:3030 Rx 1 0x361 s 8 17 6B 00 00 00 00 DB D0 
02:03:02:3553 Rx 1 0x260 s 8 17 6C 00 00 00 00 DC D0 
02:03:02:4069 Rx 1 0x161 s 8 17 6B 00 00 00 00 DC D0 
02:03:02:5333 Rx 1 0x3A7 s 8 17 6B 00 00 00 00 DC D0 
02:03:02:5841 Rx 1 0x0B6 s 8 00 00 00 40 00 00 00 00 
02:03:02:6422 Rx 1 0x018 s 8 F2 80 00 00 00 00 FF FF 
02:03:02:7040 Rx 1 0x260 s 8 17 6A 00 00 00 00 DD D0 
02:03:02:7830 Rx 1 0x227 s 8 17 6C 00 00 00 00 DD D0 
02:03:02:8331 Rx 1 0x0B6 s 8 39 37 33 37 32 35 32 36 
02:03:02:8878 Rx 1 0x161 s 8 17 6D 00 00 00 00 DD D0 
02:03:02:9605 Rx 1 0x0E6 s 8 20 00 03 39 80 00 00 00 
02:03:03:0136 Rx 1 0x3A7 s 8 17 6D 00 00 00 00 DD D0 
02:03:03:0840 Rx 1 0x361 s 8 17 6D 00 00 00 00 DD D0 
02:03:03:1428 Rx 1 0x0B6 s 8 00 00 00 40 00 00 00 00 
02:03:03:2010 Rx 1 0x260 s 8 17 6D 00 00 00 00 DD D0 
02:03:03:2821 Rx 1 0x227 s 8 17 6C 00 00 00 00 DE D0 
02:03:03:3326 Rx 1 0x0B6 s 3 56 46 37 
02:03:03:3826 Rx 1 0x161 s 8 17 6B 00 00 00 00 DE D0 
02:03:03:4350 Rx 1 0x0B6 s 8 00 00 00 40 00 00 00 00 
***END DATE AND TIME 21:4:2024 17:39:38:978***
***[STOP LOGGING SESSION]***

***BUSMASTER Ver 3.2.2***
***PROTOCOL CAN***
***NOTE: PLEASE DO NOT EDIT THIS DOCUMENT***
***[START LOGGING SESSION]***
***START DATE AND TIME 21:4:2024 17:39:40:198***
***HEX***
***SYSTEM MODE***
***START CHANNEL BAUD RATE***
***CHANNEL 1 - Simulation - 500000 bps***
***CHANNEL 2 - Simulation - 500000 bps***
***CHANNEL 3 - Simulation - 500000 bps***
***CHANNEL 4 - Simulation - 500000 bps***
***CHANNEL 5 - Simulation - 500000 bps***
***CHANNEL 6 - Simulation - 500000 bps***
***CHANNEL 7 - Simulation - 500000 bps***
***CHANNEL 8 - Simulation - 500000 bps***
***CHANNEL 9 - Simulation - 500000 bps***
***CHANNEL 10 - Simulation - 500000 bps***
***CHANNEL 11 - Simulation - 500000 bps***
***CHANNEL 12 - Simulation - 500000 bps***
***CHANNEL 13 - Simulation - 500000 bps***
***CHANNEL 14 - Simulation - 500000 bps***
***CHANNEL 15 - Simulation - 500000 bps***
***CHANNEL 16 - Simulation - 500000 bps***
***END CHANNEL BAUD RATE***
***START DATABASE FILES***
***END DATABASE FILES***
***<Time><Tx/Rx><Channel><CAN ID><Type><DLC><DataBytes>***
02:03:33:1772 Rx 1 0x000 s 5 00 00 00 00 00 
02:03:33:2794 Rx 1 0x0E6 s 8 09 00 00 00 00 00 00 00 
02:03:33:3494 Rx 1 0x51F s 4 00 00 10 00 
02:03:33:4205 Rx 1 0x13E s 7 00 00 FF 4C 00 00 4A 
02:03:33:4689 Rx 1 0x13E s 8 10 00 00 01 62 00 A3 05 
02:03:33:5387 Rx 1 0x1BE s 3 00 00 00 
02:03:33:6026 Rx 1 0x13E s 6 09 00 00 20 10 00 
02:03:33:6644 Rx 1 0x13E s 8 0D 00 00 00 00 00 00 00 
02:03:33:7219 Rx 1 0x2A0 s 8 00 00 00 0F 21 00 00 A0 
02:03:33:7787 Rx 1 0x13E s 4 00 00 10 00 
02:03:33:9449 Rx 1 0x13E s 7 00 00 FF 4C 00 00 4A 
02:03:34:0068 Rx 1 0x161 s 8 17 6D 00 00 00 00 15 D0 
02:03:34:0631 Rx 1 0x13E s 6 09 00 00 20 10 00 
02:03:34:1173 Rx 1 0x0B6 s 8 00 00 00 40 00 00 00 00 
02:03:34:1822 Rx 1 0x13E s 8 02 03 92 40 00 D0 00 10 
02:03:34:2883 Rx 1 0x51F s 4 00 00 10 00 
02:03:34:3686 Rx 1 0x227 s 8 F2 1D B2 C8 D8 00 06 00 
02:03:34:4226 Rx 1 0x0B6 s 8 00 00 00 40 00 00 00 00 
02:03:34:4715 Rx 1 0x13E s 8 10 00 00 01 62 00 A3 05 
02:03:34:5615 Rx 1 0x13E s 6 09 00 00 20 10 00 
02:03:34:6218 Rx 1 0x361 s 8 17 6C 00 00 00 00 16 D0 
02:03:34:6797 Rx 1 0x13E s 8 03 03 92 40 00 D0 00 10 
02:03:34:8682 Rx 1 0x13E s 4 00 00 10 00 
02:03:34:9264 Rx 1 0x227 s 8 17 6C 00 00 00 00 16 D0 
02:03:34:9831 Rx 1 0x13E s 8 10 00 00 01 62 00 A3 05 
02:03:35:0920 Rx 1 0x13E s 6 09 00 00 20 10 00 
02:03:35:2182 Rx 1 0x361 s 8 17 6C 00 00 00 00 17 D0 
02:03:35:2716 Rx 1 0x13E s 8 01 03 92 40 00 D0 00 10 
02:03:35:3209 Rx 1 0x51F s 4 00 00 10 00 
02:03:35:4011 Rx 1 0x13E s 7 00 00 FF 4C 00 00 4A 
02:03:35:5409 Rx 1 0x13E s 8 10 00 00 01 62 00 A3 05 
02:03:35:6473 Rx 1 0x210 s 6 09 00 00 20 10 00 
02:03:35:6990 Rx 1 0x210 s 8 02 03 92 40 00 D0 00 10 
02:03:35:7608 Rx 1 0x13E s 4 00 00 10 00 
02:03:35:8061 Rx 1 0x227 s 6 10 00 00 00 41 00 
02:03:35:8610 Rx 1 0x13E s 7 00 00 FF 4C 00 00 4A 
02:03:35:9224 Rx 1 0x161 s 6 10 00 00 00 41 00 
02:03:35:9908 Rx 1 0x13E s 8 10 00 00 01 62 00 A3 05 
02:03:36:0608 Rx 1 0x13E s 6 09 00 00 20 10 00 
02:03:36:1275 Rx 1 0x361 s 6 10 00 00 00 41 00 
02:03:36:1896 Rx 1 0x13E s 8 03 03 92 40 00 D0 00 10 
02:03:36:2609 Rx 1 0x13E s 8 F2 1D B2 C8 D8 00 06 00 
02:03:36:3089 Rx 1 0x317 s 4 00 00 10 00 
02:03:36:4084 Rx 1 0x13E s 7 00 00 FF 4C 00 00 4A 
02:03:36:5012 Rx 1 0x161 s 5 00 00 00 00 00 
02:03:36:5669 Rx 1 0x13E s 6 09 00 00 20 10 00 
02:03:36:6266 Rx 1 0x361 s 5 00 00 00 00 00 
02:03:36:6923 Rx 1 0x13E s 8 01 03 92 40 00 D0 00 10 
02:03:36:7606 Rx 1 0x13E s 5 00 00 00 00 00 
02:03:36:8266 Rx 1 0x0E6 s 4 00 00 10 00 
02:03:36:8946 Rx 1 0x13E s 5 00 00 00 00 00 
02:03:36:9613 Rx 1 0x13E s 5 00 00 00 00 00 
02:03:37:0316 Rx 1 0x0E6 s 8 10 00 00 01 62 00 A3 05 
02:03:37:1293 Rx 1 0x13E s 6 09 00 00 20 10 00 
02:03:37:1901 Rx 1 0x13E s 8 02 03 92 40 00 D0 00 10 
02:03:37:2616 Rx 1 0x317 s 4 00 00 10 00 
02:03:37:3160 Rx 1 0x227 s 8 17 69 00 00 00 00 1B D0 
02:03:37:3785 Rx 1 0x13E s 7 00 00 FF 4C 00 00 4A 
02:03:37:5313 Rx 1 0x13E s 8 10 00 00 01 62 00 A3 05 
02:03:37:5823 Rx 1 0x3A7 s 8 17 6B 00 00 00 00 1B D0 
02:03:37:7374 Rx 1 0x13E s 8 03 03 92 40 00 D0 00 10 
02:03:37:8236 Rx 1 0x260 s 8 0D 00 00 00 00 00 00 00 
02:03:37:8796 Rx 1 0x13E s 7 00 00 FF 4C 00 00 4A 
02:03:38:2381 Rx 1 0x13E s 8 10 00 00 01 62 00 A3 05 
02:03:38:3080 Rx 1 0x3A7 s 8 17 6B 00 00 00 00 1C D0 
02:03:38:3653 Rx 1 0x13E s 7 00 00 FF 4C 00 00 4A 
02:03:38:4298 Rx 1 0x1BE s 5 00 00 00 00 00 
02:03:38:4922 Rx 1 0x13E s 8 10 00 00 01 62 00 A3 05 
02:03:38:5633 Rx 1 0x13E s 6 09 00 00 20 10 00 
02:03:38:7542 Rx 1 0x361 s 8 17 6B 00 00 00 00 1D D0 
02:03:38:8199 Rx 1 0x13E s 8 02 03 92 40 00 D0 00 10 
02:03:38:8809 Rx 1 0x13E s 7 00 00 FF 4C 00 00 4A 
02:03:39:1700 Rx 1 0x13E s 8 10 00 00 01 62 00 A3 05 
02:03:39:2259 Rx 1 0x3A7 s 8 17 6D 00 00 00 00 1E D0 
02:03:39:2876 Rx 1 0x13E s 4 00 00 10 00 
02:03:39:3766 Rx 1 0x13E s 7 00 00 FF 4C 00 00 4A 
02:03:39:4764 Rx 1 0x21F s 8 10 00 00 01 62 00 A3 05 
02:03:39:5443 Rx 1 0x3A7 s 8 17 6D 00 00 00 00 1F D0 
02:03:39:6105 Rx 1 0x21F s 6 09 00 00 20 10 00 
02:03:39:6627 Rx 1 0x21F s 8 01 03 92 40 00 D0 00 10 
02:03:39:7260 Rx 1 0x0B6 s 8 00 00 00 40 00 00 00 00 
02:03:39:7853 Rx 1 0x21F s 4 00 00 10 00 
02:03:39:8613 Rx 1 0x21F s 7 00 00 FF 4C 00 00 4A 
02:03:39:9138 Rx 1 0x161 s 8 17 6E 00 00 00 00 20 D0 
02:03:39:9767 Rx 1 0x21F s 8 10 00 00 01 62 00 A3 05 
02:03:40:0657 Rx 1 0x21F s 6 09 00 00 20 10 00 
02:03:40:1225 Rx 1 0x361 s 8 17 6C 00 00 00 00 20 D0 
02:03:40:1767 Rx 1 0x21F s 8 02 03 92 40 00 D0 00 10 
02:03:40:2628 Rx 1 0x21F s 4 00 00 10 00 
02:03:40:3097 Rx 1 0x227 s 6 10 00 00 00 41 00 
02:03:40:3717 Rx 1 0x21F s 7 00 00 FF 4C 00 00 4A 
02:03:40:5002 Rx 1 0x21F s 8 10 00 00 01 62 00 A3 05 
02:03:40:5535 Rx 1 0x3A7 s 6 10 00 00 00 41 00 
02:03:40:6157 Rx 1 0x21F s 6 09 00 00 20 10 00 
02:03:40:6798 Rx 1 0x260 s 8 0D 00 00 00 00 00 00 00 
02:03:40:8085 Rx 1 0x227 s 3 00 00 00 
02:03:40:8651 Rx 1 0x21F s 8 17 6D 00 00 00 00 21 D0 
02:03:40:9291 Rx 1 0x036 s 8 80 00 2D 02 88 00 00 00 
02:03:40:9901 Rx 1 0x3A7 s 3 00 00 00 
02:03:41:0611 Rx 1 0x361 s 3 00 00 00 
02:03:41:1212 Rx 1 0x21F s 8 17 6F 00 00 00 00 22 D0 
02:03:41:1760 Rx 1 0x260 s 3 00 00 00 
02:03:41:2628 Rx 1 0x227 s 3 00 00 00 
02:03:41:3106 Rx 1 0x21F s 8 17 6E 00 00 00 00 22 D0 
02:03:41:3611 Rx 1 0x161 s 3 00 00 00 
02:03:41:4045 Rx 1 0x21F s 8 17 6E 00 00 00 00 22 D0 
02:03:41:4613 Rx 1 0x3A7 s 3 00 00 00 
02:03:41:5305 Rx 1 0x21F s 5 00 00 00 00 00 
02:03:41:5829 Rx 1 0x361 s 3 00 00 00 
02:03:41:7296 Rx 1 0x260 s 8 0D 00 00 00 00 00 00 00 
02:03:41:7855 Rx 1 0x525 s 3 00 00 00 
02:03:41:8610 Rx 1 0x161 s 5 00 00 00 00 00 
02:03:41:9253 Rx 1 0x0E6 s 3 00 00 00 
02:03:41:9890 Rx 1 0x0E6 s 8 10 00 00 01 62 00 A3 05 
02:03:42:0610 Rx 1 0x0E6 s 6 09 00 00 20 10 00 
02:03:42:1134 Rx 1 0x361 s 3 00 00 00 
02:03:42:1949 Rx 1 0x260 s 3 00 00 00 
02:03:42:2664 Rx 1 0x227 s 3 00 00 00 
02:03:42:3234 Rx 1 0x21F s 8 17 70 00 00 00 00 24 D0 
02:03:42:3784 Rx 1 0x161 s 3 00 00 00 
02:03:42:5491 Rx 1 0x3A7 s 3 00 00 00 
02:03:42:6170 Rx 1 0x21F s 8 17 6D 00 00 00 00 24 D0 
02:03:42:7087 Rx 1 0x260 s 8 0D 00 00 00 00 00 00 00 
02:03:42:7800 Rx 1 0x227 s 3 00 00 00 
02:03:42:9580 Rx 1 0x161 s 3 00 00 00 
02:03:43:0628 Rx 1 0x21F s 8 17 6D 00 00 00 00 25 D0 
02:03:43:1303 Rx 1 0x361 s 8 17 6E 00 00 00 00 25 D0 
02:03:43:1919 Rx 1 0x260 s 8 17 6E 00 00 00 00 26 D0 
02:03:43:2611 Rx 1 0x227 s 8 17 6E 00 00 00 00 26 D0 
02:03:43:3686 Rx 1 0x0B6 s 3 00 00 00 
02:03:43:4245 Rx 1 0x161 s 8 17 6E 00 00 00 00 26 D0 
02:03:43:5722 Rx 1 0x3A7 s 8 17 6E 00 00 00 00 26 D0 
02:03:43:6270 Rx 1 0x361 s 8 17 6F 00 00 00 00 26 D0 
02:03:43:6896 Rx 1 0x260 s 8 0D 00 00 00 00 00 00 00 
02:03:43:7611 Rx 1 0x227 s 8 17 6F 00 00 00 00 27 D0 
02:03:43:8794 Rx 1 0x0B6 s 3 00 00 00 
02:03:43:9445 Rx 1 0x161 s 8 17 70 00 00 00 00 27 D0 
02:03:44:0194 Rx 1 0x3A7 s 8 17 6F 00 00 00 00 27 D0 
02:03:44:0906 Rx 1 0x361 s 8 17 6D 00 00 00 00 27 D0 
02:03:45:5194 Rx 1 0x260 s 8 17 6C 00 00 00 00 27 D0 
02:03:45:5313 Rx 1 0x3000000 s 0 
02:03:45:5420 Rx 1 0xDE800800 x 8 00 00 00 00 A1 01 00 00 
02:03:45:6029 Rx 1 0x0B6 s 8 20 00 03 3C 20 00 00 00 
02:03:45:7231 Rx 1 0x0B6 s 8 20 00 03 3C 20 00 00 00 
02:03:45:7912 Rx 1 0x1BE s 8 00 00 00 00 00 00 00 00 
02:03:45:8478 Rx 1 0x1BE s 8 00 00 00 00 00 19 A1 69 
02:03:45:9498 Rx 1 0x1BE s 8 00 00 00 00 00 00 00 00 
02:03:46:1334 Rx 1 0x0E6 s 8 00 00 00 40 00 00 00 00 
02:03:46:1893 Rx 1 0x1BE s 8 00 00 00 00 00 19 A1 69 
02:03:46:2550 Rx 1 0x1BE s 8 00 00 00 00 00 19 A1 69 
02:03:46:3377 Rx 1 0x1BE s 8 00 00 00 00 00 00 00 00 
02:03:46:4236 Rx 1 0x168 s 8 F2 80 00 00 00 00 FF FF 
02:03:46:4861 Rx 1 0x1BE s 8 00 00 00 00 00 19 A1 69 
02:03:46:5484 Rx 1 0x1BE s 8 00 00 00 00 00 00 00 00 
02:03:46:6448 Rx 1 0x1BE s 8 00 00 00 00 00 19 A1 69 
02:03:46:7470 Rx 1 0x1A8 s 8 F2 80 00 00 00 00 FF FF 
02:03:46:7979 Rx 1 0x1BE s 8 00 00 00 00 00 00 00 00 
02:03:46:8623 Rx 1 0x1BE s 8 00 00 00 00 00 19 A1 69 
02:03:46:9260 Rx 1 0x1BE s 8 00 00 00 00 00 00 00 00 
02:03:46:9847 Rx 1 0x168 s 8 F2 80 00 00 00 00 FF FF 
02:03:47:0423 Rx 1 0x1BE s 8 00 00 00 00 00 19 A1 69 
02:03:47:1271 Rx 1 0x1BE s 8 00 00 00 00 00 00 00 00 
02:03:47:1894 Rx 1 0x168 s 8 F2 80 00 00 00 00 FF FF 
02:03:47:2554 Rx 1 0x1BE s 8 00 00 00 00 00 19 A1 69 
02:03:47:3259 Rx 1 0x1BE s 8 00 00 00 00 00 00 00 00 
02:03:47:3919 Rx 1 0x168 s 8 F2 80 00 00 00 00 FF FF 
02:03:47:4549 Rx 1 0x210 s 8 00 00 00 00 00 19 A1 69 
02:03:47:5271 Rx 1 0x1BE s 6 10 00 00 00 41 00 
02:03:47:5801 Rx 1 0x210 s 8 F2 80 00 00 00 00 FF FF 
02:03:47:6433 Rx 1 0x1BE s 6 10 00 00 00 41 00 
02:03:47:7706 Rx 1 0x1BE s 6 10 00 00 00 41 00 
02:03:47:8736 Rx 1 0x210 s 8 00 00 00 00 00 00 00 00 
02:03:47:9399 Rx 1 0x17E s 8 21 10 00 00 00 80 A0 01 
02:03:48:0792 Rx 1 0x1BE s 8 F2 80 00 00 00 00 FF FF 
02:03:48:1316 Rx 1 0x217 s 8 00 00 00 00 00 19 A1 69 
02:03:48:1936 Rx 1 0x260 s 8 17 6C 00 00 00 00 2F D0 
02:03:48:2867 Rx 1 0x1BE s 8 F2 80 00 00 00 00 FF FF 
02:03:48:3407 Rx 1 0x1BE s 8 F2 80 00 00 00 00 FF FF 
02:03:48:4883 Rx 1 0x1BE s 8 F2 80 00 00 00 00 FF FF 
02:03:48:5541 Rx 1 0x217 s 5 00 00 00 00 00 
02:03:48:6926 Rx 1 0x1BE s 5 00 00 00 00 00 
02:03:48:7658 Rx 1 0x0E6 s 8 F2 80 00 00 00 00 FF FF 
02:03:48:8464 Rx 1 0x1BE s 8 F2 80 00 00 00 00 FF FF 
02:03:48:9107 Rx 1 0x217 s 8 00 00 00 00 00 19 A1 69 
02:03:48:9724 Rx 1 0x1BE s 8 F2 80 00 00 00 00 FF FF 
02:03:49:0324 Rx 1 0x1BE s 8 F2 80 00 00 00 00 FF FF 
02:03:49:1092 Rx 1 0x0E6 s 8 17 6A 00 00 00 00 30 D0 
02:03:49:1857 Rx 1 0x1BE s 8 F2 80 00 00 00 00 FF FF 
02:03:49:2378 Rx 1 0x1BE s 8 F2 80 00 00 00 00 FF FF 
02:03:49:3267 Rx 1 0x1BE s 8 F2 80 00 00 00 00 FF FF 
02:03:49:3797 Rx 1 0x217 s 8 00 00 00 00 00 00 00 00 
02:03:49:5123 Rx 1 0x1BE s 8 F2 80 00 00 00 00 FF FF 
02:03:49:5716 Rx 1 0x1BE s 8 F2 80 00 00 00 00 FF FF 
02:03:49:6356 Rx 1 0x1BE s 8 F2 80 00 00 00 00 FF FF 
02:03:49:8190 Rx 1 0x1BE s 8 F2 80 00 00 00 00 FF FF 
02:03:49:8844 Rx 1 0x217 s 8 00 00 00 00 00 00 00 00 
02:03:49:9458 Rx 1 0x1BE s 8 F2 80 00 00 00 00 FF FF 
02:03:50:1285 Rx 1 0x1BE s 8 F2 80 00 00 00 00 FF FF 
02:03:50:1838 Rx 1 0x217 s 8 00 00 00 00 00 19 A1 69 
02:03:50:2479 Rx 1 0x1BE s 8 F2 80 00 00 00 00 FF FF 
02:03:51:5599 Rx 1 0x1BE s 8 F2 80 00 00 00 00 FF FF 
02:03:51:5711 Rx 1 0x8000000 x 8 78 2D 00 00 00 00 3E 01 
02:03:51:5819 Rx 1 0x6C170800 s 0 
02:03:51:6628 Rx 1 0x21F s 8 00 00 00 0F 21 00 00 A0 
02:03:51:7161 Rx 1 0x217 s 8 0D 00 00 00 00 00 00 00 
02:03:51:7773 Rx 1 0x227 s 5 00 00 00 00 00 
02:03:51:9729 Rx 1 0x0E6 s 8 17 6D 00 00 00 00 35 D0 
02:03:52:0261 Rx 1 0x0B6 s 8 00 00 00 40 00 00 00 00 
02:03:52:1114 Rx 1 0x0E6 s 8 17 6C 00 00 00 00 36 D0 
02:03:52:1701 Rx 1 0x260 s 8 17 6B 00 00 00 00 36 D0 
02:03:52:2308 Rx 1 0x1A1 s 1 00 
02:03:52:2982 Rx 1 0x227 s 8 17 6B 00 00 00 00 36 D0 
02:03:52:3810 Rx 1 0x161 s 8 17 6C 00 00 00 00 36 D0 
02:03:52:4323 Rx 1 0x0B6 s 8 00 00 00 40 00 00 00 00 
02:03:52:5004 Rx 1 0x3A7 s 8 17 6C 00 00 00 00 36 D0 
02:03:52:5649 Rx 1 0x361 s 8 17 6C 00 00 00 00 37 D0 
02:03:52:6862 Rx 1 0x0B6 s 8 00 00 00 40 00 00 00 00 
02:03:52:7697 Rx 1 0x525 s 8 17 6D 00 00 00 00 37 D0 
02:03:52:8240 Rx 1 0x018 s 8 17 6C 00 00 00 00 37 D0 
02:03:52:8963 Rx 1 0x161 s 8 17 6C 00 00 00 00 37 D0 
02:03:52:9659 Rx 1 0x3A7 s 8 17 6C 00 00 00 00 37 D0 
02:03:53:0280 Rx 1 0x0B6 s 8 00 00 00 40 00 00 00 00 
02:03:53:0903 Rx 1 0x361 s 8 17 6D 00 00 00 00 37 D0 
02:03:53:1651 Rx 1 0x260 s 8 17 6D 00 00 00 00 38 D0 
02:03:53:2289 Rx 1 0x0B6 s 8 00 00 00 40 00 00 00 00 
02:03:53:2915 Rx 1 0x227 s 8 17 6B 00 00 00 00 38 D0 
02:03:53:3708 Rx 1 0x210 s 8 17 6B 00 00 00 00 38 D0 
02:03:54:5288 Rx 1 0x0B6 s 8 00 00 00 40 00 00 00 00 
02:03:54:5405 Rx 1 0x8000000 s 0 
02:03:54:5519 Rx 1 0x300 s 0 
02:03:54:5964 Rx 1 0x168 s 5 80 00 00 00 80 
02:03:54:6654 Rx 1 0x525 s 8 17 66 00 00 00 00 3A D0 
02:03:54:7243 Rx 1 0x0B6 s 8 00 00 00 40 00 00 00 00 
02:03:54:7790 Rx 1 0x227 s 8 17 67 00 00 00 00 3A D0 
02:03:55:0410 Rx 1 0x161 s 8 17 68 00 00 00 00 3B D0 
02:03:55:0970 Rx 1 0x0B6 s 8 00 00 00 40 00 00 00 00 
02:03:55:1649 Rx 1 0x260 s 8 17 69 00 00 00 00 3B D0 
02:03:55:2402 Rx 1 0x0B6 s 8 00 00 00 40 00 00 00 00 
02:03:55:2977 Rx 1 0x227 s 8 17 6B 00 00 00 00 3B D0 
02:03:55:3660 Rx 1 0x161 s 8 17 6A 00 00 00 00 3C D0 
02:03:55:4209 Rx 1 0x0B6 s 8 00 00 00 40 00 00 00 00 
02:03:55:4849 Rx 1 0x3A7 s 8 17 6B 00 00 00 00 3C D0 
02:03:55:7584 Rx 1 0x361 s 8 17 6C 00 00 00 00 3C D0 
02:03:55:8194 Rx 1 0x0B6 s 8 00 00 00 40 00 00 00 00 
02:03:55:8764 Rx 1 0x161 s 8 17 6C 00 00 00 00 3C D0 
02:03:56:0657 Rx 1 0x3A7 s 8 17 6B 00 00 00 00 3D D0 
02:03:56:1238 Rx 1 0x0B6 s 8 00 00 00 40 00 00 00 00 
02:03:56:1896 Rx 1 0x260 s 8 17 6C 00 00 00 00 3D D0 
02:03:56:2707 Rx 1 0x227 s 8 17 6B 00 00 00 00 3D D0 
02:03:56:3315 Rx 1 0x0B6 s 3 56 46 37 
02:03:56:3916 Rx 1 0x161 s 8 17 6C 00 00 00 00 3D D0 
02:03:56:4685 Rx 1 0x3A7 s 8 17 6C 00 00 00 00 3E D0 
02:03:56:5323 Rx 1 0x0B6 s 5 00 00 00 00 00 
02:03:56:5952 Rx 1 0x361 s 8 17 6C 00 00 00 00 3E D0 
02:03:56:6651 Rx 1 0x525 s 8 17 6C 00 00 00 00 3E D0 
02:03:56:7253 Rx 1 0x0B6 s 5 00 00 00 00 00 
02:03:56:7972 Rx 1 0x227 s 5 00 00 00 00 00 
02:03:56:8698 Rx 1 0x161 s 5 00 00 00 00 00 
02:03:56:9269 Rx 1 0x0E6 s 8 17 6C 00 00 00 00 3E D0 
02:03:56:9997 Rx 1 0x3A7 s 5 00 00 00 00 00 
02:03:57:0652 Rx 1 0x0E6 s 8 17 6F 00 00 00 00 3F D0 
02:03:57:1302 Rx 1 0x0B6 s 8 00 00 00 40 00 00 00 00 
02:03:57:2004 Rx 1 0x0E6 s 8 17 70 00 00 00 00 3F D0 
02:03:57:2647 Rx 1 0x227 s 8 17 6E 00 00 00 00 3F D0 
02:03:57:3182 Rx 1 0x0B6 s 3 56 46 37 
02:03:57:3809 Rx 1 0x161 s 8 17 6E 00 00 00 00 3F D0 
02:03:57:6016 Rx 1 0x3A7 s 8 17 6F 00 00 00 00 3F D0 
02:03:57:8237 Rx 1 0x0B6 s 8 00 00 00 40 00 00 00 00 
02:03:57:8836 Rx 1 0x3F6 s 5 00 00 00 00 00 
02:03:57:9655 Rx 1 0x210 s 8 17 6D 00 00 00 00 40 D0 
02:03:58:0268 Rx 1 0x0B6 s 8 00 00 00 40 00 00 00 00 
02:03:58:1074 Rx 1 0x210 s 8 17 6D 00 00 00 00 40 D0 
02:03:58:1655 Rx 1 0x260 s 8 17 6E 00 00 00 00 41 D0 
02:03:58:2314 Rx 1 0x210 s 8 00 00 00 40 00 00 00 00 
02:03:58:2917 Rx 1 0x227 s 8 17 6E 00 00 00 00 41 D0 
02:03:58:3649 Rx 1 0x161 s 8 17 6F 00 00 00 00 41 D0 
02:03:58:4258 Rx 1 0x0B6 s 6 10 00 00 00 41 00 
02:03:58:4789 Rx 1 0x3A7 s 8 17 6E 00 00 00 00 41 D0 
02:03:58:5647 Rx 1 0x361 s 8 17 6E 00 00 00 00 41 D0 
02:04:00:5707 Rx 1 0x0B6 s 8 00 00 00 40 00 00 00 00 
02:04:00:5817 Rx 1 0x6000000 x 0 
02:04:00:5924 Rx 1 0x800500 x 0 
02:04:00:6326 Rx 1 0x21F s 5 80 00 00 00 80 
02:04:00:6909 Rx 1 0x0B6 s 8 00 00 00 40 00 00 00 00 
02:04:00:7999 Rx 1 0x17E s 8 80 DE 48 40 00 00 00 00 
02:04:00:8668 Rx 1 0x1A1 s 5 00 00 00 00 00 
02:04:00:9259 Rx 1 0x17E s 8 21 10 00 00 00 80 A0 01 
02:04:00:9942 Rx 1 0x17E s 8 80 DE 48 40 00 00 00 00 
02:04:01:0762 Rx 1 0x17E s 8 21 10 00 00 00 80 A0 01 
02:04:01:1493 Rx 1 0x128 s 5 00 00 00 00 00 
02:04:01:2028 Rx 1 0x17E s 5 00 00 00 00 00 
02:04:01:2763 Rx 1 0x17E s 5 00 00 00 00 00 
02:04:01:3287 Rx 1 0x0E6 s 8 21 10 00 00 00 80 A0 01 
02:04:01:3963 Rx 1 0x17E s 8 80 DE 48 40 00 00 00 00 
02:04:01:4784 Rx 1 0x17E s 8 21 10 00 00 00 80 A0 01 
02:04:01:5319 Rx 1 0x128 s 8 8E 5D 22 70 F8 77 77 20 
02:04:01:6384 Rx 1 0x17E s 8 80 DE 48 40 00 00 00 00 
02:04:01:6916 Rx 1 0x17E s 8 21 10 00 00 00 80 A0 01 
02:04:01:7759 Rx 1 0x17E s 8 80 DE 48 40 00 00 00 00 
02:04:01:8334 Rx 1 0x1A1 s 8 00 00 00 0F 21 00 00 A0 
02:04:01:8980 Rx 1 0x17E s 8 21 10 00 00 00 80 A0 01 
02:04:03:0279 Rx 1 0x17E s 8 80 DE 48 40 00 00 00 00 
02:04:03:0397 Rx 1 0x5000000 x 0 
02:04:03:0506 Rx 1 0x6D170800 s 0 
02:04:03:0940 Rx 1 0x17E s 6 10 00 00 00 41 00 
02:04:03:2331 Rx 1 0x17E s 8 80 DE 48 40 00 00 00 00 
02:04:03:3090 Rx 1 0x1A1 s 6 10 00 00 00 41 00 
02:04:03:3757 Rx 1 0x17E s 8 80 DE 48 40 00 00 00 00 
02:04:03:4360 Rx 1 0x1A1 s 6 10 00 00 00 41 00 
02:04:03:4933 Rx 1 0x17E s 8 21 10 00 00 00 80 A0 01 
02:04:03:6424 Rx 1 0x17E s 8 80 DE 48 40 00 00 00 00 
02:04:03:6969 Rx 1 0x1A1 s 6 10 00 00 00 41 00 
02:04:03:8477 Rx 1 0x17E s 8 80 DE 48 40 00 00 00 00 
02:04:03:9003 Rx 1 0x1A1 s 6 10 00 00 00 41 00 
02:04:03:9760 Rx 1 0x17E s 8 80 DE 48 40 00 00 00 00 
02:04:04:0422 Rx 1 0x1A1 s 8 8E 5D 22 70 F8 77 77 20 
02:04:04:1026 Rx 1 0x17E s 8 21 10 00 00 00 80 A0 01 
02:04:04:1756 Rx 1 0x17E s 8 80 DE 48 40 00 00 00 00 
02:04:04:2292 Rx 1 0x1A1 s 1 00 
02:04:04:2925 Rx 1 0x17E s 8 21 10 00 00 00 80 A0 01 
02:04:04:3758 Rx 1 0x17E s 8 80 DE 48 40 00 00 00 00 
02:04:04:4340 Rx 1 0x1A1 s 8 00 00 00 0F 21 00 00 A0 
02:04:04:4958 Rx 1 0x17E s 8 21 10 00 00 00 80 A0 01 
02:04:04:5761 Rx 1 0x17E s 8 80 DE 48 40 00 00 00 00 
02:04:04:6438 Rx 1 0x1A1 s 8 00 00 00 0F 21 00 00 A0 
02:04:04:7003 Rx 1 0x17E s 8 21 10 00 00 00 80 A0 01 
02:04:04:7816 Rx 1 0x17E s 8 80 DE 48 40 00 00 00 00 
02:04:04:8410 Rx 1 0x1A1 s 8 00 00 00 0F 21 00 00 A0 
02:04:04:9050 Rx 1 0x17E s 8 21 10 00 00 00 80 A0 01 
02:04:04:9865 Rx 1 0x17E s 8 80 DE 48 40 00 00 00 00 
02:04:07:5344 Rx 1 0x1BE s 6 10 00 00 00 41 00 
02:04:07:5455 Rx 1 0x6000000 x 8 38 48 5A 43 00 00 B6 03 
02:04:07:5570 Rx 1 0x175D0800 x 8 00 00 00 00 3E 01 00 00 
02:04:07:6103 Rx 1 0x2A0 s 8 00 00 00 0F 21 00 00 A0 
02:04:07:6642 Rx 1 0x0E6 s 5 80 00 00 00 80 
02:04:07:8412 Rx 1 0x3F6 s 5 00 00 00 00 00 
02:04:07:9035 Rx 1 0x0E6 s 8 00 06 FF FF 7F FF 00 00 
02:04:07:9600 Rx 1 0x2A1 s 5 00 00 00 00 00 
02:04:08:0468 Rx 1 0x0E6 s 8 5D 17 78 2D 00 00 00 00 
02:04:08:1079 Rx 1 0x13E s 8 00 06 FF FF 7F FF 00 00 
02:04:08:1600 Rx 1 0x261 s 8 5E 17 70 2D 00 00 00 00 
02:04:08:3543 Rx 1 0x14C s 8 5E 17 58 2D 00 00 00 00 
02:04:08:4186 Rx 1 0x13E s 8 00 06 FF FF 7F FF 00 00 
02:04:08:4804 Rx 1 0x3B6 s 8 5E 17 68 2D 00 00 00 00 
02:04:08:5470 Rx 1 0x14C s 8 5E 17 88 2D 00 00 00 00 
02:04:08:6040 Rx 1 0x13E s 8 00 06 FF FF 7F FF 00 00 
02:04:08:6728 Rx 1 0x14C s 8 5E 17 58 2D 00 00 00 00 
02:04:08:7515 Rx 1 0x3F6 s 8 5E 17 60 2D 00 00 00 00 
02:04:08:8087 Rx 1 0x13E s 8 00 06 FF FF 7F FF 00 00 
02:04:08:8812 Rx 1 0x221 s 8 5E 17 78 2D 00 00 00 00 
02:04:08:9457 Rx 1 0x2A1 s 8 5E 17 88 2D 00 00 00 00 
02:04:09:0128 Rx 1 0x13E s 8 00 06 FF FF 7F FF 00 00 
02:04:09:0690 Rx 1 0x14C s 8 5E 17 60 2D 00 00 00 00 
02:04:09:1884 Rx 1 0x261 s 8 5E 17 68 2D 00 00 00 00 
02:04:09:2505 Rx 1 0x13E s 8 00 06 FF FF 7F FF 00 00 
02:04:09:3110 Rx 1 0x036 s 8 80 00 2D 02 89 00 00 00 
02:04:09:3856 Rx 1 0x14C s 8 5E 17 88 2D 00 00 00 00 
02:04:09:4502 Rx 1 0x3B6 s 8 5E 17 60 2D 00 00 00 00 
02:04:09:5219 Rx 1 0x13E s 8 00 06 FF FF 7F FF 00 00 
02:04:09:5906 Rx 1 0x14C s 8 5E 17 58 2D 00 00 00 00 
02:04:09:6563 Rx 1 0x14C s 8 5E 17 88 2D 00 00 00 00 
02:04:09:7455 Rx 1 0x3F6 s 8 5E 17 78 2D 00 00 00 00 
02:04:09:8138 Rx 1 0x13E s 8 00 06 FF FF 7F FF 00 00 
02:04:09:8733 Rx 1 0x221 s 8 5E 17 48 2D 00 00 00 00 
02:04:09:9491 Rx 1 0x2A1 s 8 5E 17 60 2D 00 00 00 00 
02:04:10:0011 Rx 1 0x13E s 8 00 06 FF FF 7F FF 00 00 
02:04:10:0871 Rx 1 0x14C s 8 5E 17 80 2D 00 00 00 00 
02:04:10:2379 Rx 1 0x261 s 8 5E 17 88 2D 00 00 00 00 
02:04:10:3079 Rx 1 0x13E s 8 00 06 FF FF 7F FF 00 00 
02:04:10:3625 Rx 1 0x210 s 8 5E 17 68 2D 00 00 00 00 
02:04:10:5037 Rx 1 0x210 s 8 5E 17 80 2D 00 00 00 00 
02:04:10:5641 Rx 1 0x13E s 8 00 06 FF FF 7F FF 00 00 
02:04:10:7094 Rx 1 0x14C s 8 5E 17 60 2D 00 00 00 00 
02:04:10:7715 Rx 1 0x13E s 8 00 06 FF FF 7F FF 00 00 
02:04:10:8483 Rx 1 0x221 s 8 5E 17 80 2D 00 00 00 00 
